! Touchstone file exported from HFSS 2021.1.0
!        File:           /home/yxiao22/Documents/ANSYS/mstrip_wt_bondwire/exercise_1.aedt
!        Generated:      11:52:15 AM  Feb 11, 2022
!        Design:         design2
!        Project:        exercise_1
!        Setup:          Setup1
!        Solution:       Sweep
!
! Variables:
!        bondwire_diam = 0.1mm
!        gap_x = 10mm
!        gap_y = 10mm
!        main_x = 80mm
!        main_y = 10mm
!        sub_z = 1mm
!        tr1_len = 30mm
!        tr1_w = 2mm
!        tr_thickness = 0.0017mm
!        tr_width = 2mm
!
# GHz S MA R 50.000000
! Terminal data exported
! Port[1] = 1
! Port[2] = 2
0                              0.999977553625513 0                3.24717807752262E-07 180              3.2471780701804E-07 180              0.999977138859094 0                
! Gamma         0                0                0                0                
! Port Impedance         50               0                50               0                
0.0501672240802676             0.997424461657595 -8.517635069204  0.0161946958016515 80.7859672738537 0.0161946958016516 80.7859672738538 0.997386062771977 -8.64557990391883 
! Gamma         0                0                0                0                
! Port Impedance         50               0                50               0                
0.100334448160535              0.994314676742262 -16.9207963283299 0.0323736613583171 71.7464930438298 0.0323736613583172 71.7464930438298 0.994236494348661 -17.1741134719854 
! Gamma         0                0                0                0                
! Port Impedance         50               0                50               0                
0.150501672240803              0.990742552559141 -25.3283424766996 0.0486699204731953 62.7613798412918 0.0486699204731955 62.7613798412919 0.990641985693076 -25.7063655601433 
! Gamma         0                0                0                0                
! Port Impedance         50               0                50               0                
0.20066889632107               0.986217805661766 -33.685344302227 0.0651300367009667 53.7699620872516 0.0651300367009669 53.7699620872517 0.986082082890132 -34.1854596267002 
! Gamma         0                0                0                0                
! Port Impedance         50               0                50               0                
0.250836120401338              0.981072247483395 -41.9942060710942 0.0818531873623027 44.7775306660853 0.0818531873623029 44.7775306660853 0.980891038802356 -42.6126184688587 
! Gamma         0                0                0                0                
! Port Impedance         50               0                50               0                
0.301003344481605              0.975551738824753 -50.2698569679989 0.0989623587688999 35.7721471814368 0.0989623587689001 35.7721471814368 0.975325568373282 -51.0016264183388 
! Gamma         0                0                0                0                
! Port Impedance         50               0                50               0                
0.351170568561873              0.969710417523381 -58.538475391806 0.116599485394821 26.7331313522033 0.116599485394821 26.7331313522033 0.969462023051414 -59.3780274669459 
! Gamma         0                0                0                0                
! Port Impedance         50               0                50               0                
0.40133779264214               0.963295370909821 -66.8330384724501 0.134919784326582 17.6347516945496 0.134919784326582 17.6347516945496 0.963076936563125 -67.7756217650154 
! Gamma         0                0                0                0                
! Port Impedance         50               0                50               0                
0.451505016722408              0.955633955100365 -75.1824295719873 0.154086847652472 8.44841971201032 0.154086847652473 8.44841971201031 0.955503509190438 -76.2267936641126 
! Gamma         0                0                0                0                
! Port Impedance         50               0                50               0                
0.501672240802676              0.945650236090919 -83.5866971233904 0.174268970475073 -0.856183042978557 0.174268970475073 -0.856183042978566 0.945560093636838 -84.7357170757481 
! Gamma         0                0                0                0                
! Port Impedance         50               0                50               0                
0.551839464882943              0.932547770116371 -91.9814459771084 0.195636135676637 -10.3109429180063 0.195636135676637 -10.3109429180063 0.932253818660621 -93.2265494070112 
! Gamma         0                0                0                0                
! Port Impedance         50               0                50               0                
0.602006688963211              0.917510669467618 -100.287549021514 0.218356066728857 -19.9499943669968 0.218356066728857 -19.9499943669968 0.91717798040828 -101.597198749953 
! Gamma         0                0                0                0                
! Port Impedance         50               0                50               0                
0.652173913043478              0.902417861272412 -108.623849951232 0.242586585769125 -29.8110565342352 0.242586585769125 -29.8110565342352 0.902581675725476 -110.014283584347 
! Gamma         0                0                0                0                
! Port Impedance         50               0                50               0                
0.702341137123746              0.88497585361746 -117.185047735602 0.268459896055651 -39.9371496537715 0.268459896055651 -39.9371496537715 0.885231418716331 -118.681065850101 
! Gamma         0                0                0                0                
! Port Impedance         50               0                50               0                
0.752508361204013              0.861486711130987 -125.924409899502 0.296052153463202 -50.3782496773469 0.296052153463202 -50.378249677347 0.861486181373974 -127.50371018242 
! Gamma         0                0                0                0                
! Port Impedance         50               0                50               0                
0.802675585284281              0.830654189162672 -134.665657798223 0.325328990649913 -61.1921348700531 0.325328990649913 -61.1921348700531 0.830517081826299 -136.304613357364 
! Gamma         0                0                0                0                
! Port Impedance         50               0                50               0                
0.852842809364548              0.793049777787861 -143.23845999091 0.356055812920868 -72.4431696549235 0.356055812920868 -72.4431696549236 0.79300699022225 -144.929338357109 
! Gamma         0                0                0                0                
! Port Impedance         50               0                50               0                
0.903010033444816              0.750165711333368 -151.501622368551 0.387664644169601 -84.1970604148604 0.387664644169601 -84.1970604148604 0.750367253939174 -153.247804951452 
! Gamma         0                0                0                0                
! Port Impedance         50               0                50               0                
0.953177257525084              0.703911731453487 -159.345074860556 0.419085722994212 -96.5089636257619 0.419085722994212 -96.5089636257619 0.704394476471192 -161.15478433821 
! Gamma         0                0                0                0                
! Port Impedance         50               0                50               0                
1.00334448160535               0.655584652296551 -166.680711879331 0.448634052347698 -109.396021100649 0.448634052347698 -109.396021100649 0.656244915303733 -168.526299646667 
! Gamma         0                0                0                0                
! Port Impedance         50               0                50               0                
1.05351170568562               0.596772956078568 -172.838797793259 0.474950757230439 -122.698339125505 0.47495075723044 -122.698339125505 0.598269210552205 -174.3763186608  
! Gamma         0                0                0                0                
! Port Impedance         50               0                50               0                
1.10367892976589               0.540184830455932 -177.204319641633 0.495721621446623 -136.36340957263 0.495721621446623 -136.36340957263 0.5434542620758  -178.763354127747 
! Gamma         0                0                0                0                
! Port Impedance         50               0                50               0                
1.15384615384615               0.493301086866333 -179.410834230116 0.509237543308463 -150.219260873535 0.509237543308464 -150.219260873535 0.497239112023314 178.748732579704 
! Gamma         0                0                0                0                
! Port Impedance         50               0                50               0                
1.20401337792642               0.463835999217395 -179.665491430234 0.514574387066863 -164.057053430502 0.514574387066863 -164.057053430502 0.466808395385108 178.161569455154 
! Gamma         0                0                0                0                
! Port Impedance         50               0                50               0                
1.25418060200669               0.45637773726425 -179.035433070935 0.511867131895708 -177.666157580934 0.511867131895708 -177.666157580934 0.457856825559985 178.60276498776  
! Gamma         0                0                0                0                
! Port Impedance         50               0                50               0                
1.30434782608696               0.469686230171016 -178.995446428066 0.50221996418842 169.130005962988 0.502219964188419 169.130005962988 0.470515435383953 178.576673417926 
! Gamma         0                0                0                0                
! Port Impedance         50               0                50               0                
1.35451505016722               0.497753554300235 179.476950115259 0.487320975470032 156.451327983425 0.487320975470031 156.451327983426 0.49898438571955 176.959264745945 
! Gamma         0                0                0                0                
! Port Impedance         50               0                50               0                
1.40468227424749               0.533460015025317 176.211537955665 0.468984598948188 144.356883314508 0.468984598948187 144.356883314508 0.53542210102678 173.51948198066  
! Gamma         0                0                0                0                
! Port Impedance         50               0                50               0                
1.45484949832776               0.571199781176127 171.51006603642  0.448814228156465 132.854938424075 0.448814228156464 132.854938424075 0.573541072615788 168.596987581873 
! Gamma         0                0                0                0                
! Port Impedance         50               0                50               0                
1.50501672240803               0.607483088471888 165.779527194306 0.428046448430562 121.918841495118 0.428046448430562 121.918841495119 0.609631491118562 162.654720218604 
! Gamma         0                0                0                0                
! Port Impedance         50               0                50               0                
1.55518394648829               0.640516221591182 159.365850274665 0.407537408414476 111.50225294652  0.407537408414476 111.50225294652  0.642038929251282 156.071346360745 
! Gamma         0                0                0                0                
! Port Impedance         50               0                50               0                
1.60535117056856               0.669606281622705 152.519578141854 0.38782314076218 101.550685090367 0.38782314076218 101.550685090367 0.670345254154811 149.104916176336 
! Gamma         0                0                0                0                
! Port Impedance         50               0                50               0                
1.65551839464883               0.694692020126888 145.4092313717   0.369201122263194 92.0089588398099 0.369201122263194 92.0089588398101 0.694744487991842 141.916089200584 
! Gamma         0                0                0                0                
! Port Impedance         50               0                50               0                
1.7056856187291                0.716035942189906 138.143461881756 0.351805217920803 82.8253928898063 0.351805217920804 82.8253928898065 0.715669092516318 134.599317112462 
! Gamma         0                0                0                0                
! Port Impedance         50               0                50               0                
1.75585284280936               0.734039887661576 130.79000120177  0.335664253680303 73.9537820888612 0.335664253680303 73.9537820888613 0.733596813008132 127.207377337586 
! Gamma         0                0                0                0                
! Port Impedance         50               0                50               0                
1.80602006688963               0.749141535301693 123.389434733614 0.320743823920154 65.3540447128925 0.320743823920155 65.3540447128926 0.748964266553387 119.767927523406 
! Gamma         0                0                0                0                
! Port Impedance         50               0                50               0                
1.8561872909699                0.761760188013692 115.964624807854 0.306974440564708 56.9921488016269 0.306974440564709 56.9921488016271 0.762136843416331 112.293986987713 
! Gamma         0                0                0                0                
! Port Impedance         50               0                50               0                
1.90635451505017               0.772271227331599 108.527010020294 0.294269706379317 48.8396972256882 0.294269706379317 48.8396972256883 0.773405655890218 104.7903802874   
! Gamma         0                0                0                0                
! Port Impedance         50               0                50               0                
1.95652173913043               0.780996628345802 101.080792117784 0.282537652545528 40.8733890830683 0.28253765254553 40.8733890830683 0.78299604670684 97.2576389539933 
! Gamma         0                0                0                0                
! Port Impedance         50               0                50               0                
2.0066889632107                0.788204110522703 93.6257277216433 0.271687587791459 33.0744721923158 0.27168758779146 33.0744721923158 0.791080000348384 89.6943377892284 
! Gamma         0                0                0                0                
! Port Impedance         50               0                50               0                
2.05685618729097               0.79411067891056 86.1590047920642 0.261634096552027 25.4282402887831 0.261634096552028 25.4282402887832 0.797788913592063 82.0984718336086 
! Gamma         0                0                0                0                
! Port Impedance         50               0                50               0                
2.10702341137124               0.798888196111865 78.6765167338636 0.252299282582498 17.9235937501755 0.252299282582499 17.9235937501756 0.803225215776813 74.4682423664856 
! Gamma         0                0                0                0                
! Port Impedance         50               0                50               0                
2.1571906354515                0.802669715462227 71.173735647904  0.243613972855848 10.5526634744225 0.243613972855849 10.5526634744224 0.80747227734244 66.802474659853  
! Gamma         0                0                0                0                
! Port Impedance         50               0                50               0                
2.20735785953177               0.805555918124285 63.6463135443937 0.235518338678974 3.31048697514054 0.235518338678974 3.31048697514049 0.81060245703083 59.100803181492  
! Gamma         0                0                0                0                
! Port Impedance         50               0                50               0                
2.25752508361204               0.807621326256934 56.0904933435588 0.227962220720721 -3.8052803646894 0.227962220720722 -3.80528036468933 0.812683302978426 51.3637087284357 
! Gamma         0                0                0                0                
! Port Impedance         50               0                50               0                
2.30769230769231               0.808920128394571 48.5033813218847 0.220905333369877 -10.7946400977018 0.220905333369877 -10.7946400977018 0.813781986563298 43.5924621366843 
! Gamma         0                0                0                0                
! Port Impedance         50               0                50               0                
2.35785953177257               0.80949152232248 40.8831135671149 0.214317450788015 -17.6555363537625 0.214317450788016 -17.6555363537625 0.813968079448022 35.7890118797766 
! Gamma         0                0                0                0                
! Port Impedance         50               0                50               0                
2.40802675585284               0.809364498499297 33.2289373265113 0.208178627827405 -24.3841807056839 0.208178627827405 -24.3841807056839 0.813314812422465 27.9558426414365 
! Gamma         0                0                0                0                
! Port Impedance         50               0                50               0                
2.45819397993311               0.808561981229136 25.5412215337806 0.202479473852141 -30.975448369026 0.202479473852141 -30.975448369026 0.81189898700106 20.0958255895316 
! Gamma         0                0                0                0                
! Port Impedance         50               0                50               0                
2.50836120401338               0.807104233828856 17.8214077312422 0.197221469735397 -37.4233811407798 0.197221469735398 -37.4233811407799 0.809799744755494 12.2120767090339 
! Gamma         0                0                0                0                
! Port Impedance         50               0                50               0                
2.55852842809365               0.805011430358166 10.0719119634873 0.192417293339757 -43.721834045939 0.192417293339758 -43.7218340459391 0.807096428983842 4.30783615796238 
! Gamma         0                0                0                0                
! Port Impedance         50               0                50               0                
2.60869565217391               0.802305307632334 2.29598915225052 0.188091093719424 -49.8653002119064 0.188091093719424 -49.8653002119066 0.803865792922595 -3.61362126582361 
! Gamma         0                0                0                0                
! Port Impedance         50               0                50               0                
2.65886287625418               0.799009840369191 -5.50242673422178 0.184278627918437 -55.8499386282711 0.184278627918437 -55.8499386282713 0.800178815455869 -11.5490369406814 
! Gamma         0                0                0                0                
! Port Impedance         50               0                50               0                
2.70903010033445               0.795150928575952 -13.3188913081949 0.181027147596092 -61.6748078776008 0.181027147596093 -61.674807877601 0.79609737995199 -19.4951749554699 
! Gamma         0                0                0                0                
