! TouchStone data converted from IdEM dataset
# Hz S DB R 50
                   1   -178.1538469825938    90.23246081438958 -4.366474768564259e-11 -3.586379072315305e-07 -4.366474768564259e-11 -3.586379072315305e-07   -178.1538469810095    90.23246338591979
   20020021.01901902   -32.15031349520804    82.96540507621938 -0.003530927075820604   -7.178473491045822 -0.003530927075813851   -7.178473491045824   -32.15016163356477     83.1394936384737
   40040041.03803804   -26.20209351001737    75.70869054437372 -0.01220746560615665   -14.34866080944353  -0.0122074656061383   -14.34866080944353    -26.2017932810143    76.05661081339903
   60060061.05705706   -22.80003815810966    68.46916847270113 -0.02555934778076393   -21.50259969393028 -0.02555934778077553   -21.50259969393028   -22.79959213627991    68.99032445244801
   80080081.07607608   -20.46836120813753    61.25390827863262 -0.04283529000145419   -28.63335601930038 -0.04283529000144547   -28.63335601930038   -20.46777196022474     61.9473588488948
   100100101.0950951   -18.74457199338081    54.06857651754291 -0.06305403459785261   -35.73545970618331 -0.06305403459783707   -35.73545970618331   -18.74384229061189    54.93300188709032
   120120121.1141141   -17.42281109912079    46.91710991087743 -0.08506961884604369   -42.80521590270145 -0.08506961884602424   -42.80521590270145   -17.42194404998691    47.95076020167546
   140140141.1331331   -16.39360418943966    39.80153907978747  -0.1076444828275672   -49.84088723117905  -0.1076444828275643   -49.84088723117905   -16.39260336619605    41.00216231683038
   160160161.1521522   -15.59217613135935    32.72194941931526  -0.1295245894968572   -56.84274636000315  -0.1295245894968474   -56.84274636000315   -15.59104571853321    34.08669345730113
   180180181.1711712   -14.97759025993579    25.67656844351291  -0.1495115044064145   -63.81300851126483  -0.1495115044064204   -63.81300851126483   -14.97633524632961    27.20184847118968
   200200201.1901902   -14.52305361430455    18.66196450272098  -0.1665275304196213   -70.75566071475517  -0.1665275304196213   -70.75566071475517   -14.52168005368085    20.34328369816062
   220220221.2092092   -14.21097518322831    11.67334013424252  -0.1796712433329965   -77.67620804184766   -0.179671243333028   -77.67620804184766   -14.20949055957513     13.5050448771387
   240240241.2282282   -14.03030924597054    4.704905434810348  -0.1882618896574981    -84.5813572503823  -0.1882618896574842    -84.5813572503823   -14.02872299901364    6.679846765552666
   260260261.2472472    -13.9751232125292   -2.249677436113853  -0.1918719386394624   -91.47865633587988  -0.1918719386394496   -91.47865633587988   -13.97344751411167  -0.1406202402065679
   280280281.2662663   -14.04390777243267   -9.196778047382859  -0.1903475753659438   -98.37610565650796  -0.1903475753659359   -98.37610565650796   -14.04215870737807   -6.965382560854249
   300300301.2852853   -14.23942183661097   -16.14219438558623  -0.1838171121143053   -105.2817536948088  -0.1838171121143004   -105.2817536948088   -14.23762125955501   -13.80390621977304
   320320321.3043043   -14.56902712244941   -23.09042190187818   -0.172687272086948   -112.2032889666191  -0.1726872720869647   -112.2032889666191   -14.56720569347158    -20.6658947132764
   340340341.3233233   -15.04560686147348   -30.04370622096278  -0.1576271900517376   -119.1476395517027  -0.1576271900517326   -119.1476395517027   -15.04380924430496   -27.56123741284155
   360360361.3423423   -15.68935088284568   -37.00068768837268  -0.1395399197324564   -126.1205932725586  -0.1395399197324633   -126.1205932725586   -15.68764516078848   -34.50025237538616
   380380381.3613614   -16.53103647292212   -43.95420252978689  -0.1195213750857562   -133.1264543528823  -0.1195213750857621   -133.1264543528823   -16.52953243418247   -41.49452760210858
   400400401.3803804   -17.61820469254524   -50.88717085076327 -0.09880707290605686   -140.1677557077808 -0.09880707290605004   -140.1677557077808   -17.61709262969433   -48.55907600509062
   420420421.3993994   -19.02759167243887   -57.76363429931731 -0.07870784654382622   -147.2450487583246 -0.07870784654384956   -147.2450487583246   -19.02723492532887   -55.71771889861284
   440440441.4184184   -20.89296434150896   -64.50553825286738 -0.06053684312545621    -154.356793498338 -0.06053684312547273    -154.356793498338   -20.89415896387706   -63.01775838465712
   460460461.4374374   -23.47840943832814   -70.91751254913386 -0.04553147356625376    -161.499369167952 -0.04553147356623921    -161.499369167952   -23.48331413174085     -70.578192569736
   480480481.4564565   -27.42981733658546   -76.34043889299134 -0.03477532144080506   -168.6672193935171 -0.03477532144082442   -168.6672193935171   -27.44702554329165   -78.81279660972646
   500500501.4754755   -35.24921917699302   -76.21549097490259 -0.02912601966089803   -175.8531349280742 -0.02912601966088062   -175.8531349280742   -35.36996001734452   -90.68249907453806
   520520521.4944945   -40.12578604546977    61.93213453518926 -0.02915544866807274    176.9513368270185 -0.02915544866806113    176.9513368270185   -40.49597699063998    104.7684197645411
   540540541.5135136   -29.00730571221603    70.77123288274554 -0.03510805931973852    169.7553813860411 -0.03510805931972787    169.7553813860411   -29.02882780517807    86.99397799819411
   560560561.5325326   -24.26390818817559    66.02290265632473 -0.04688162321043721    162.5683449537817 -0.04688162321045659    162.5683449537817   -24.26728363542127    78.30108163928853
   580580581.5515516   -21.27748052124347    59.76813433431805 -0.06403244258470112    155.3991481241035 -0.06403244258469334    155.3991481241035   -21.27632815519506    70.60503092163272
   600600601.5705706   -19.14185382282584    53.06190131895865  -0.0858044016685905    148.2557351274822  -0.0858044016686129    148.2557351274822   -19.13887429547926    63.24160730198069
   620620621.5895896   -17.52065387184908    46.17649793573644  -0.1111787111150308    141.1446030277625  -0.1111787111150357    141.1446030277626      -17.51671418741    56.04749432877679
   640640641.6086086   -16.25160658626649    39.21498610386627  -0.1389392529429642    134.0704441433085  -0.1389392529429799    134.0704441433085   -16.24706247288607    48.96477197213832
   660660661.6276276   -15.24394892800627    32.22467797463585  -0.1677473758706965    127.0359204631814  -0.1677473758707113    127.0359204631814   -15.23896912037201    41.96786251889024
   680680681.6466466   -14.44189981887528    25.22913573710074  -0.1962198892611697    120.0415739427761  -0.1962198892611776    120.0415739427761    -14.4365714687455    35.04293240700047
   700700701.6656656   -13.80898520472717    18.23971002989083  -0.2230047086177679    113.0858639138122  -0.2230047086177609    113.0858639138122   -13.80335484851388    28.18059516780268
   720720721.6846846   -13.32042745866184    11.26050760232249  -0.2468498259138707     106.165314073324  -0.2468498259138558     106.165314073324   -13.31451894399423    21.37299745943661
   740740741.7037038   -12.95911908218867    4.290877281906712  -0.2666626828739167    99.27474710287767  -0.2666626828739048    99.27474710287767   -12.95294197509826    14.61263972208854
   760760761.7227228   -12.71336496258895    -2.67316148265571  -0.2815583296490738    92.40758439958147  -0.2815583296490877    92.40758439958147   -12.70691849411224     7.89198713824616
   780780781.7417418   -12.57557648108663   -9.637991889022542  -0.2908957663315938    85.55619054741848  -0.2908957663315888    85.55619054741848   -12.56885108844026    1.203486563299947
   800800801.7607608   -12.54152314227112   -16.61174313635743  -0.2943025094075764    78.71224568287333  -0.2943025094075825    78.71224568287333    -12.5345004301588   -5.460180076928883
   820820821.7797798   -12.60994558014218   -23.60380808142765  -0.2916877109355678     71.8671325747985  -0.2916877109355618     71.8671325747985   -12.60259691971831   -12.10567899040601
   840840841.7987988   -12.78243820415658   -30.62450628376466  -0.2832441615656027    65.01232808807956  -0.2832441615656097    65.01232808807956   -12.77472176907981   -18.73846375752252
   860860861.8178178   -13.06357540512684   -37.68490799661451  -0.2694393442628513    58.13979012916707  -0.2694393442628573    58.13979012916707    -13.0554309901555   -25.36204804984944
   880880881.8368368   -13.46131054202195   -44.79688126796748  -0.2509955053256862    51.24233093458832  -0.2509955053256623    51.24233093458832   -13.45265079926999   -31.97703883591339
   900900901.8558558   -13.98774371362961   -51.97349614266955  -0.2288586054188424    44.31396576571009  -0.2288586054188285    44.31396576571009   -13.97843909341497   -38.57977276791988
   920920921.8748748   -14.66046157197263   -59.23005672455598  -0.2041561250898606    37.35022315851077  -0.2041561250898695    37.35022315851077   -14.65031340712182   -45.16022978585993
   940940941.8938938   -15.50485687328623     -66.586326588548  -0.1781441160562308    30.34839961700683  -0.1781441160562386    30.34839961700683   -15.49354648278383    -51.6985234346442
    960960961.912913   -16.55827189827241   -74.07121829069168  -0.1521446499396245    23.30773908479463  -0.1521446499396098    23.30773908479463    -16.5452569697224   -58.15835771595891
    980980981.931932   -17.87784267247071   -81.73310873806321  -0.1274758840226321     16.2295168912856  -0.1274758840226556     16.2295168912856   -17.86212498143081   -64.47339131850116
   1001001001.950951   -19.55667275249144   -89.66477022511373  -0.1053782102571423    9.117010288767519  -0.1053782102571462    9.117010288767517   -19.53620558736262   -70.51492136615526
    1021021021.96997   -21.76151334112918   -98.07352457827137 -0.08694115726760129    1.975343919222972 -0.08694115726761104    1.975343919222971   -21.73138642148914   -76.00156641036287
   1041041041.988989   -24.83804254860911   -107.5322721830627 -0.07303658969460157   -5.188791426370874 -0.07303658969458698   -5.188791426370874   -24.78311344262643   -80.17867189177522
   1061061062.008008   -29.70571167541939   -120.3508224900104 -0.06426400831622352   -12.36753556511161 -0.06426400831621283   -12.36753556511161   -29.55106308716456    -80.1124447948059
   1081081082.027027   -39.99314642429196   -161.0767328111207 -0.06091319642163591    -19.5523463486619 -0.06091319642163202    -19.5523463486619   -38.60654752265746   -49.83203212912198
   1101101102.046046   -34.37856603775252    79.96643610182069 -0.06294804748781789   -26.73454102303225 -0.06294804748782372   -26.73454102303225   -33.94264376380337    41.18388550338817
   1121121122.065065    -27.4983440305096    60.31129333946689 -0.07001331806057948   -33.90584720631896 -0.07001331806056196   -33.90584720631896   -27.39862722838271    49.51429607372775
   1141141142.084084   -23.78058343428268    49.57093762174748 -0.08146363169210483   -41.05891763126963  -0.0814636316921204   -41.05891763126962   -23.73325275225154    47.00612901870526
   1161161162.103103   -21.32028240684744    40.71725196292551 -0.09641176001060947   -48.18776766322878 -0.09641176001062117   -48.18776766322878   -21.28982105253424     42.1325901968042
   1181181182.122122   -19.54626591784644    32.58081098418034  -0.1137914363610016   -55.28810473955458  -0.1137914363610075   -55.28810473955458   -19.52321403029245    36.39593336795659
   1201201202.141141   -18.21507720478902    24.80438881169615  -0.1324289801807413   -62.35753204007754  -0.1324289801807433   -62.35753204007754   -18.19586728906413    30.26390971661934
    1221221222.16016   -17.20128786732619    17.24174513319131  -0.1511178863880612   -69.39562223651093  -0.1511178863880563   -69.39562223651093   -17.18427063416471    23.92805927967167
   1241241242.179179   -16.43260087122726    9.820418538545319  -0.1686911317725888   -76.40386876566615  -0.1686911317725711   -76.40386876566615    -16.4169009422661    17.47995896048312
   1261261262.198198   -15.86448701156122    2.498614026551164  -0.1840870131072569   -83.38553026930693  -0.1840870131072471   -83.38553026930693   -15.84958808565771    10.96736534359772
   1281281282.217217   -15.46869826037392   -4.751213826631223   -0.196405566419227    -90.3453882152336  -0.1964055664192299    -90.3453882152336   -15.45426670444148    4.416135698729784
   1301301302.236236   -15.22755588101179   -11.94942214933522  -0.2049537707879833   -97.28943871743731  -0.2049537707879724   -97.28943871743731   -15.21335573820858   -2.159801616514064
   1321321322.255255   -15.13098245239812   -19.11244392941895  -0.2092786464855446   -104.2245382231435  -0.2092786464855703   -104.2245382231435   -15.11682942702691   -8.753270925786181
   1341341342.274274   -15.17501623118772   -26.25434015356189  -0.2091879481359518   -111.1580202437864  -0.2091879481359567   -111.1580202437864   -15.16074903574344   -15.36077961697293
   1361361362.293293   -15.36126965337194   -33.38752537870939  -0.2047584475574718   -118.0972977946826  -0.2047584475574807   -118.0972977946826   -15.34672822777843   -21.98039900526344
   1381381382.312312    -15.6971534378385   -40.52308926030022  -0.1963318799359926    -125.049464516304  -0.1963318799359926    -125.049464516304   -15.68215733805296   -28.61000323175397
   1401401402.331331   -16.19694083837658   -47.67095008309453  -0.1844986101843333   -132.0209070522797   -0.184498610184352   -132.0209070522797   -16.18126104758618   -35.24544483067606
    1421421422.35035   -16.88404414755736    -54.8400173335867  -0.1700690968175643   -139.0169422299311  -0.1700690968175525   -139.0169422299311   -16.86735752690866   -41.87816546535487
   1441441442.369369    -17.7954127727797    -62.0385775014759  -0.1540334138097562   -146.0414946042398  -0.1540334138097562   -146.0414946042398   -17.77721612125507   -48.49130499418283
   1461461462.388388   -18.99019837426845   -69.27531813280584  -0.1375095326921142   -153.0968322902875  -0.1375095326921103   -153.0968322902875   -18.96962317984741   -55.05204218119464
   1481481482.407408   -20.56819214750047   -76.56209840478826   -0.121681810708833   -160.1833807260997  -0.1216818107088399   -160.1833807260997   -20.54354152591883   -61.49361022540185
   1501501502.426426   -22.71445821106389   -83.92228557792438  -0.1077321433282162   -167.2996339248328  -0.1077321433282299   -167.2996339248328   -22.68179391375547   -67.66389038746698
   1521521522.445446   -25.83218722945984   -91.42257733338496 -0.09676739654379204   -174.4421798235967 -0.09676739654379593   -174.4421798235967   -25.77944014654453   -73.13237498709975
   1541541542.464464   -31.11817059282148   -99.37089119326077 -0.08974782351957011    178.3941501478762 -0.08974782351957011    178.3941501478762   -30.98021002169454   -76.01355505814652
   1561561562.483484   -48.65724838750288   -116.4124225826663 -0.08742192177237323    171.2160071014754 -0.08742192177237713    171.2160071014754   -44.73671999514525   -41.73367596394482
   1581581582.502502    -33.5295046217643    69.50842034032958 -0.09027333746945729    164.0311385420934 -0.09027333746943586    164.0311385420934   -33.36366172325826    68.84383454972493
   1601601602.521522   -26.77613404232624    61.17631217913143 -0.09848479581321631    156.8479151684007  -0.0984847958132202    156.8479151684007   -26.74123809186565    68.24909292414796
    1621621622.54054   -23.05761749995665    53.60575692502011  -0.1119226147801196    149.6748067494146  -0.1119226147801196    149.6748067494146   -23.04101649084371     63.1571536637703
    1641641642.55956   -20.52312300797698    46.22511913054313  -0.1301433216388145    142.5198499309371  -0.1301433216387861    142.5198499309371   -20.51187543353488     57.0613360090008
   1661661662.578578   -18.63919604971937    38.94013860313365  -0.1524215809193161    135.3901517558675  -0.1524215809193092    135.3901517558675   -18.63010907973654    50.59517731741886
   1681681682.597598   -17.17637082426832    31.72506828021294  -0.1777964790558954    128.2914675892825  -0.1777964790559052    128.2914675892825   -17.16836602765308    43.96328412165612
   1701701702.616617   -16.01457458232812    24.57153368495089  -0.2051315745684678    121.2278821794088  -0.2051315745684708    121.2278821794088   -16.00723132676772    37.25218003293416
   1721721722.635636   -15.08305543400057     17.4763746082051    -0.23318325076838     114.201609921589  -0.2331832507683761     114.201609921589   -15.07620896378653    30.50398753293454
   1741741742.654655   -14.33673307353278    10.43775436767848  -0.2606718459867103    107.2129175274104  -0.2606718459867053    107.2129175274104   -14.33033717511404    23.74019067356336
   1761761762.673674   -13.74535529130078    3.453755989607174  -0.2863506525021219    100.2601613935776  -0.2863506525021149    100.2601613935776   -13.73942912941933    16.97096589579603
   1781781782.692693   -13.28797969734876   -3.478062261510446  -0.3090689246666136    93.33992435883488  -0.3090689246666106    93.33992435883488   -13.28258652161178    10.19942439731811
   1801801802.711712   -12.94995109139628   -10.36065551888542  -0.3278262426597914    86.44723261782634  -0.3278262426597975    86.44723261782634   -12.94519111090385    3.423788388047968
   1821821822.730731   -12.72116143544435   -17.19721749869693  -0.3418167026405553    79.57583289839353  -0.3418167026405614    79.57583289839353    -12.7171723759607     -3.3613778739173
    1841841842.74975   -12.59502297719844   -23.99071822694648  -0.3504622878178757    72.71851166284154  -0.3504622878179018    72.71851166284154   -12.59198613272632   -10.16443120554386
   1861861862.768769   -12.56787021409777   -30.74327363202182   -0.353435348635476    65.86744094062813  -0.3534353486354871    65.86744094062814   -12.56602186994589   -16.99622516560244
   1881881882.787788   -12.63864527672774   -37.45532617714164  -0.3506703922478676    59.01453839172359  -0.3506703922478615    59.01453839172358   -12.63829482999199   -23.86994352517271
   1901901902.806807   -12.80879650119194      -44.12457284379  -0.3423654163289566    52.15183152036071  -0.3423654163289868    52.15183152036071   -12.81035420810502    -30.8012153222275
   1921921922.825826   -13.08236756657234   -50.74451516702735  -0.3289729183216674    45.27181709165836  -0.3289729183216834    45.27181709165836   -13.08638727331346   -37.80860969917155
   1941941942.844845   -13.46629328645809   -57.30240141994354  -0.3111805819728602    38.36780654716143  -0.3111805819728802    38.36780654716142   -13.47353977347433   -44.91471316302122
   1961961962.863864   -13.97096115732076   -63.77613579097825  -0.2898816022847244    31.43424667757354  -0.2898816022847444    31.43424667757355   -13.98251988660402   -52.14817444690974
   1981981982.882883    -14.6111596037761   -70.12933951605777   -0.266134758673703    24.46700239942804   -0.266134758673703    24.46700239942804   -14.62862325886973   -59.54745911223527
   2002002002.901902   -15.40763721450722   -76.30292046955994  -0.2411147566605493    17.46358588501136  -0.2411147566605305    17.46358588501135   -15.43343947582684   -67.16781222297853
   2022022022.920921   -16.38968324275779   -82.19962395820296  -0.2160540566822333    10.42331442686047   -0.216054056682259    10.42331442686047   -16.42773461170331   -75.09466066841303
    2042042042.93994   -17.59948116960502    -87.6534007742553   -0.192178354900505    3.347379304640266  -0.1921783549005001    3.347379304640266   -17.65647737215435   -83.47103021609243
   2062062062.958959   -19.09956859357727   -92.36288450026376  -0.1706389569824002    -3.76118950439002  -0.1706389569823894    -3.76118950439002   -19.18795532906718   -92.55866080076765
   2082082082.977978   -20.98525157760181   -95.73036642402184  -0.1524462979541953   -10.89767210399678  -0.1524462979542071   -10.89767210399678   -21.13080446290992   -102.8909462020765
