! TouchStone data converted from IdEM dataset
# Hz S DB R 50
                   1    -178.017959058192    90.22707256452311 -4.332530441741413e-11 -3.575205155209827e-07 -4.332530441741413e-11 -3.575205155209827e-07   -178.0179590581901    90.22707256452306
   20020021.01901902    -32.0145172815065    83.00295004698778 -0.003608280453107381   -7.156055858279478 -0.003608280453111241   -7.156055858279478   -32.01440461155997    83.13607990665389
   40040041.03803804   -26.06666426313456    75.78937705136701  -0.0125246077431894   -14.30354108189499 -0.01252460774319712   -14.30354108189499   -26.06644208992855    76.05551993446738
   60060061.05705706   -22.66521758117844    68.59341609955526 -0.02626172523600659   -21.43422882911646 -0.02626172523602013   -21.43422882911646   -22.66488799905126    68.99226341306267
   80080081.07607608   -20.33435808010922    61.42228238595835  -0.0440417515742241   -28.54096205823724 -0.04404175157422797   -28.54096205823725   -20.33392297431285    61.95333622639831
   100100101.0950951   -18.61155226316665    54.28172383813314 -0.06484956830980282   -35.61810443344727 -0.06484956830980088   -35.61810443344727   -18.61101349400181    54.94427777622423
   120120121.1141141   -17.29089008823329    47.17568215255532 -0.08750091718463172   -42.66186066701962 -0.08750091718463368   -42.66186066701961   -17.29024958947966    47.96879056655188
   140140141.1331331    -16.2628409527701    40.10610966856409   -0.110718481379609   -49.67046173461291  -0.1107184813795992   -49.67046173461291   -16.26210081203878    41.02854439761185
   160160161.1521522   -15.46256952497021    33.07292789795851  -0.1332098200890232   -56.64421469445978  -0.1332098200890399   -56.64421469445979   -15.46173206913796    34.12311901121411
   180180181.1711712   -14.84907589141398    26.07411548998745  -0.1537418742625438   -63.58542777415652  -0.1537418742625516   -63.58542777415652   -14.84814379172984    27.25007114307007
   200200201.1901902   -14.39550051739003    19.10590840893585   -0.171208000364818   -70.49822886843276  -0.1712080003648199   -70.49822886843276   -14.39447692922347    20.40510627503836
   220220221.2092092   -14.08418070767512    12.16309301697855  -0.1846848248781663   -77.38829901872116   -0.184684824878181   -77.38829901872116   -14.08306946506349    13.58233204677975
   240240241.2282282   -13.90399019409957    5.239374342145451  -0.1934773920293725    -84.2625424562261  -0.1934773920293656    -84.2625424562261   -13.90279608978022    6.774569747374747
   260260261.2472472   -13.84890053584948   -1.672193442213942  -0.1971519457726822   -91.12871257959752  -0.1971519457726744   -91.12871257959752   -13.84762973652143 -0.02629859995901289
   280280281.2662663   -13.91728091332322   -8.578719790047289  -0.1955561947350603   -97.99501013969487  -0.1955561947350435   -97.99501013969487   -13.91594159451635   -6.828969007464544
   300300301.2852853   -14.11172660610817   -15.48692838244727  -0.1888270941663104   -104.8696670976674  -0.1888270941663143   -104.8696670976674   -14.11032995608974   -13.64236261182493
   320320321.3043043   -14.43936695203524   -22.40252293325058  -0.1773861422483785   -111.7605279696445  -0.1773861422483844   -111.7605279696445    -14.4379288221374   -20.47530927515464
   340340341.3233233   -14.91273946142816   -29.32941398847172  -0.1619220655579671   -118.6746404392582  -0.1619220655579553   -118.6746404392582   -14.91128320647929   -27.33631085957261
   360360361.3423423   -15.55149646174624   -36.26868585708396  -0.1433607098444914   -125.6178686561874  -0.1433607098444777   -125.6178686561874   -15.55005810756425   -34.23346144853667
   380380381.3613614   -16.38553901937177   -43.21702616762034  -0.1228221006238549   -132.5945455657211  -0.1228221006238666   -132.5945455657211   -16.38417733051107   -41.17468062305524
   400400401.3803804   -17.46089514736408   -50.16393389847038  -0.1015651071079961   -139.6071840322769  -0.1015651071080137   -139.6071840322769   -17.45971302519671   -48.16861445310647
   420420421.3993994   -18.85148070805769    -57.0858347633454 -0.08092098973464834   -146.6562692630395 -0.08092098973464737   -146.6562692630395   -18.85067618875371   -55.22712799942833
   440440441.4184184     -20.685203766811   -63.93117651558277 -0.06221830656531453   -153.7401557165185 -0.06221830656532716   -153.7401557165185    -20.6852124271081   -62.37224657317784
   460460461.4374374   -23.21179853525965   -70.57316811083358 -0.04670305770534137   -160.8550889526767 -0.04670305770532877   -160.8550889526767   -23.21379715437763   -69.65870268783684
   480480481.4564565   -27.03066603890844   -76.59922256308468 -0.03545930809961637   -167.9953658447637 -0.03545930809959604   -167.9953658447637   -27.03923654777299   -77.27470056845036
   500500501.4754755   -34.37299673787368   -79.39187485985633 -0.02933651749124931   -175.1536351966946  -0.0293365174912406   -175.1536351966946   -34.43209025440519   -86.46748542946241
   520520521.4944945   -42.49041143185723    65.50126197487162 -0.02889008852598796    177.6786737637028 -0.02889008852598506    177.6786737637028   -42.90303963948811    100.0285284488643
   540540541.5135136   -29.57330783922776    73.91110364124559  -0.0343409864252479    170.5108230103509 -0.03434098642525952    170.5108230103509   -29.59018136911553    85.20868443558321
   560560561.5325326   -24.59827700538914    68.62261190066921 -0.04555865031975886    163.3521787860363 -0.04555865031974916    163.3521787860363   -24.60123633997464    77.21990531794488
   580580581.5515516   -21.52901094921538    62.15362020880895 -0.06206901675181883    156.2116156792557   -0.062069016751813    156.2116156792557   -21.52860478777212    69.82302179701682
   600600601.5705706    -19.3554380021456    55.35147508540981 -0.08308673205641989    149.0969624954916 -0.08308673205644129    149.0969624954916   -19.35366493991829    62.62512757919545
   620620621.5895896   -17.71611716904746    48.42541716705175  -0.1075680645973509    142.0145345964601  -0.1075680645973461    142.0145345964601   -17.71361178530827    55.53614347767806
   640640641.6086086   -16.43977959846144     41.4532651142211  -0.1342791109208918    134.9687853961838  -0.1342791109209153    134.9687853961838   -16.43680169626795    48.52589795195295
   660660661.6276276   -15.43170732332146    34.47020813272778  -0.1618729097244291    127.9620945586956  -0.1618729097244143    127.9620945586956    -15.4283797793487    41.58149857246016
   680680681.6466466   -14.63418072843624    27.49319568095028  -0.1889690777723081    120.9946952462579  -0.1889690777722894    120.9946952462579   -14.63056619937129    34.69562614948922
   700700701.6656656    -14.0097436316592    20.52961711789833  -0.2142303852388203    114.0647301409229  -0.2142303852388034    114.0647301409229   -14.00587425214231    27.86250483407585
   720720721.6846846   -13.53315886955946     13.5810386464356  -0.2364319819400236    107.1684174641324  -0.2364319819400365    107.1684174641324   -13.52904916991136    21.07639259685355
   740740741.7037038   -13.18718731834741    6.645105707538598  -0.2545204286530505    100.3003041966164  -0.2545204286530644    100.3003041966164   -13.18284016349273    14.33108130061009
   760760761.7227228   -12.96024121334787  -0.2833248153637539  -0.2676609945580228    93.45358351061553   -0.267660994558012    93.45358351061553   -12.95565039872657    7.619869673320233
   780780781.7417418   -12.84504383527058   -7.211415537304103  -0.2752726724484066    86.62045584099262  -0.2752726724483907    86.62045584099262   -12.84019477971763   0.9357908628181696
   800800801.7607608   -12.83788130725667   -14.14777844103258  -0.2770509694706327    79.79251664502181  -0.2770509694706457    79.79251664502181    -12.8327503597962   -5.727999564233842
   820820821.7797798   -12.93824491975777   -21.10204161815655  -0.2729787780116543    72.96115747759183  -0.2729787780116582    72.96115747759183   -12.93279729810947   -12.37770978046455
   840840841.7987988   -13.14877614684642     -28.084543359977  -0.2633256086842065     66.1179695994642  -0.2633256086841995     66.1179695994642    -13.1429621130889   -19.01826776604801
   860860861.8178178   -13.47550184185525   -35.10618380702901  -0.2486353014590676     59.2551403821294  -0.2486353014590716     59.2551403821294   -13.46925017886326    -25.6525040830366
   880880881.8368368   -13.92841716928677   -42.17851340804842  -0.2297021626392959    52.36583210262619  -0.2297021626392998    52.36583210262619   -13.92162407032363   -32.28006004815332
   900900901.8558558   -14.52256826877879    -49.3142220024485  -0.2075354425947299    45.44453054198559  -0.2075354425947299    45.44453054198559   -14.51507782305309   -38.89581007292573
   920920921.8748748   -15.27995168694861   -56.52836545494731  -0.1833122907665963    38.48734768470199  -0.1833122907665894    38.48734768470199     -15.271519841493   -45.48735069420257
   940940941.8938938   -16.23288381154281   -63.84106438711999  -0.1583198801921495    31.49225967776482   -0.158319880192177    31.49225967776483   -16.22310717973739   -52.03055201147999
    960960961.912913   -17.43026008354487   -71.28343084479583  -0.1338883004179649    24.45925922484496  -0.1338883004179384    24.45925922484497   -17.41842239292569   -58.48072183114955
    980980981.931932   -18.95008463091995   -78.91146748263468   -0.111317004876143    17.39040203768445  -0.1113170048761312    17.39040203768445   -18.93478454111727   -64.75269829721965
   1001001001.950951   -20.92743465891947   -86.84302887627972 -0.09179889561454269    10.28973092686315 -0.09179889561453294    10.28973092686315   -20.90552508938924   -70.66859374998613
    1021021021.96997   -23.62776614760762   -95.37829554241681 -0.07634727320202112    3.163069116039735  -0.0763472732020182    3.163069116039735   -23.59050409998366    -75.7885132767484
   1041041041.988989   -27.69559568694642   -105.5542795856716 -0.06573156523887823   -3.982313968133405 -0.06573156523889573   -3.982313968133406   -27.60756016581141   -78.64244146999727
   1061061062.008008   -35.52367236584767   -124.5351883372773 -0.06042769771321455   -11.13814729510448 -0.06042769771322038   -11.13814729510448   -35.03464442686962   -69.80369807200493
   1081081082.027027   -39.37227613937481    99.05448735836069 -0.06058803849538822   -18.29568235989723 -0.06058803849537268   -18.29568235989723   -38.27136362936452    35.08608584724842
   1101101102.046046   -29.34670959789043    69.88583121118995  -0.0660340681745907   -25.44625519630776 -0.06603406817458196   -25.44625519630776   -29.21900573589629    55.82602765204977
   1121121122.065065   -24.81348231025535    58.78016156910639 -0.07627258212143323   -32.58183917631025 -0.07627258212142157   -32.58183917631025   -24.76450255349857    54.28604962062127
   1141141142.084084      -21.97470727622    49.98813919168476  -0.0905337205494445   -39.69554266013129  -0.0905337205494445   -39.69554266013129   -21.94640200586205    49.56429092813533
   1161161162.103103   -19.97280601558215    41.95047402334241  -0.1078269259360609   -46.78201306325179  -0.1078269259360541   -46.78201306325179    -19.9527101410266    43.83943033660824
   1181181182.122122   -18.48251881281623    34.26469443062793  -0.1270094164177017   -53.83772102025261  -0.1270094164176998   -53.83772102025261   -18.46641129667859    37.68917600142126
   1201201202.141141   -17.34616633036105    26.78029342956713  -0.1468611297971801   -60.86111243600741  -0.1468611297971899   -60.86111243600742   -17.33221803535172    31.33166292101873
    1221221222.16016   -16.47594845077382    19.42693379622919  -0.1661603088788581   -67.85262961746842  -0.1661603088788679   -67.85262961746842   -16.46322784539351    24.86652106919147
   1241241242.179179   -15.81870301688294    12.16551599310241  -0.1837547619420845    -74.8146132915242  -0.1837547619420697    -74.8146132915242   -15.80667408689531    18.34438276163795
   1261261262.198198   -15.34071558236826    4.970655250496352  -0.1986250474214161   -81.75110407371807  -0.1986250474214092   -81.75110407371807   -15.32903531500182    11.79229503980184
   1281281282.217217   -15.02037569901382   -2.176551851197178  -0.2099371037226363   -88.66756484243938  -0.2099371037226442   -88.66756484243938   -15.00880018577838    5.224737627667149
   1301301302.236236   -14.84437451417673   -9.291781542757972  -0.2170829451994847   -95.57054526755553  -0.2170829451994728   -95.57054526755553   -14.83270946864329   -1.350862704274335
   1321321322.255255    -14.8057067850086   -16.38901318224498  -0.2197088447248621   -102.4673076300231  -0.2197088447248522   -102.4673076300231   -14.79377722243946   -7.930953223877479
   1341341342.274274   -14.90272299412005   -23.48126549683892   -0.217730892811194   -109.3654302985054  -0.2177308928111841   -109.3654302985054     -14.890350348673   -14.51371010983618
   1361361362.293293   -15.13891714311361   -30.58098202044012   -0.211338013885148   -116.2724028537833  -0.2113380138851717   -116.2724028537833   -15.12589675059026   -21.09729748319635
   1381381382.312312   -15.52338451091713   -37.70032903875535   -0.200982536570706   -123.1952255857554   -0.200982536570707   -123.1952255857554   -15.50945689882287   -27.67812635780186
   1401401402.331331   -16.07209565793257   -44.85163592064923  -0.1873583885166538   -130.1400262451871  -0.1873583885166557   -130.1400262451871   -16.05690206229757   -34.24869848778867
    1421421422.35035   -16.81042886740164   -52.04830027014123  -0.1713670535697956   -137.1117084143992  -0.1713670535697798   -137.1117084143992   -16.79343226197462   -40.79435806455709
   1441441442.369369   -17.77798385096861   -59.30679902939497  -0.1540717087401922   -144.1136481695837  -0.1540717087401863   -144.1136481695837   -17.75831222537174   -47.28749384840071
   1461461462.388388   -19.03808216206426   -66.65138410781691  -0.1366405290996087   -151.1474579884843  -0.1366405290996145   -151.1474579884843   -19.01417905647094   -53.67548514007694
   1481481482.407408    -20.6982011669451   -74.12610258768787  -0.1202810247824701   -158.2128380010155  -0.1202810247824828   -158.2128380010155   -20.66692382880774    -59.8513885935952
   1501501502.426426   -22.96038280760918   -81.83097298723058  -0.1061683840977545   -165.3075335087666  -0.1061683840977496   -165.3075335087666     -22.914140431845   -65.56756252822794
   1521521522.445446   -26.27602908563595   -90.06553596855966 -0.09537197373516507   -172.4274132505669  -0.0953719737351641   -172.4274132505669   -26.19013683391478   -70.09833057295832
   1541541542.464464   -32.05817979059487    -100.310136591217 -0.08878514374788435   -179.5666747650142 -0.08878514374788143   -179.5666747650142   -31.78269229339854   -70.03224846226736
   1561561562.483484   -51.33881202308729    177.6581434480674 -0.08706401939145327     173.281828137944 -0.08706401939144452     173.281828137944   -43.67524871704764   -6.250947834914001
   1581581582.502502   -32.24414473449801    77.62958879584569 -0.09058079193598653    166.1261538838718 -0.09058079193598165    166.1261538838718   -32.01919959614424      66.207728312622
   1601601602.521522   -26.19985515656711    67.22225585364396 -0.09939602806031457    158.9747683127528  -0.0993960280603175    158.9747683127528   -26.14695230996259    66.70467020184643
    1621621622.54054   -22.71915285357258    58.95567092239603   -0.113252769754989    151.8360067932223  -0.1132527697549724    151.8360067932223   -22.69591966496123      62.230049455048
    1641641642.55956   -20.31512971102833     51.2407580997354  -0.1315929552230498    144.7175479521246  -0.1315929552230478    144.7175479521246   -20.30139207887316     56.5018613325506
   1661661662.578578    -18.5205582523456    43.76717637061279  -0.1535943537394366     137.625941935249  -0.1535943537394268     137.625941935249   -18.51082249773541    50.28797897517109
   1681681682.597598   -17.12727730823672    36.43512496264125   -0.178224199325857    130.5662285694702   -0.178224199325853    130.5662285694702   -17.11952411257217    43.84811138936873
   1701701702.616617    -16.0242591579363    29.20347769121388  -0.2043043637424384    123.5416691646563  -0.2043043637424561    123.5416691646563   -16.01761045527652    37.29451268973447
   1721721722.635636   -15.14535491538988    22.05191532869272  -0.2305823873888312    116.5536024228566  -0.2305823873888233    116.5536024228566    -15.1393915516757    30.68271568214385
   1741741742.654655   -14.44818878530326    14.96839401025919  -0.2558029487325735     109.601422486182  -0.2558029487325884     109.601422486182    -14.4427052101379    24.04184752042008
   1761761762.673674   -13.90431980594852    7.944278608443013  -0.2787752036816196    102.6826674250753  -0.2787752036816216    102.6826674250753   -13.89922319322513     17.3868335884215
   1781781782.692693   -13.49418171729552   0.9723249328703731  -0.2984325918754943    95.79320037722235  -0.2984325918754873    95.79320037722235    -13.4894470488268    10.72405019990209
   1801801802.711712   -13.20429675756701   -5.954099252762679  -0.3138829159067021    88.92746308145618  -0.3138829159067172    88.92746308145618   -13.19994666846779    4.054266087218052
   1821821822.730731   -13.02567550787899   -12.84117536256269  -0.3244475430321446    82.07878199239981  -0.3244475430321576    82.07878199239981   -13.02177274678985   -2.625668469898197
    1841841842.74975   -12.95288889585551   -19.69443817121578  -0.3296893377099653    75.23970942598707  -0.3296893377099593    75.23970942598707   -12.94953658290553   -9.321778899751342
   1861861862.768769   -12.98355747201761   -26.51832950726433  -0.3294293767302863      68.402385136742  -0.3294293767302803      68.402385136742   -12.98090568422102   -16.04230954460073
   1881881882.787788   -13.11813298546283   -33.31552471556541  -0.3237526668570569    61.55890639658701  -0.3237526668570479    61.55890639658701   -13.11639224063133   -22.79735281608574
   1901901902.806807   -13.35992238967956   -40.08599061853117  -0.3130030646501536    54.70169635072904  -0.3130030646501455    54.70169635072904    -13.3593865417049   -29.59875791069462
   1921921922.825826   -13.71535935552621   -46.82565644474909   -0.297767501084465    47.82386081732434    -0.29776750108445    47.82386081732434   -13.71644318960908   -36.46039390593402
   1941941942.844845   -14.19458474877393   -53.52445252199718  -0.2788495579383348    40.91952275576459  -0.2788495579383328    40.91952275576459   -14.19788654934888   -43.39895127748761
   1961961962.863864   -14.81247743483965   -60.16322626272682  -0.2572325380714064    33.98412165699833  -0.2572325380714104    33.98412165699833   -14.81888686500689   -50.43566077796019
   1981981982.882883   -15.59041644885286    -66.7085213159033  -0.2340325024946399    27.01466271206046  -0.2340325024946399    27.01466271206046    -15.6013102112142   -57.59971298684463
   2002002002.901902    -16.5593318327956   -73.10299112176708  -0.2104423559567517    20.00989864781701  -0.2104423559567596    20.00989864781701    -16.5769526109472   -64.93509400785737
   2022022022.920921   -17.76519958624568   -79.24612954063439  -0.1876689306225385    12.97042658665351  -0.1876689306225404    12.97042658665351   -17.79345441883432   -72.51493724259775
    2042042042.93994    -19.2795465851431   -84.95120354250621  -0.1668660491753046    5.898684161062267  -0.1668660491753046    5.898684161062267   -19.32588470840098   -80.47438703910018
   2062062062.958959    -21.2211561298193   -89.83524839671419  -0.1490675715219034   -1.201165924010446  -0.1490675715218936   -1.201165924010446   -21.30169705255486   -89.09632547825653
   2082082082.977978   -23.80503182807196    -92.9824000906508  -0.1351252134598198   -8.323465532014387  -0.1351252134598374   -8.323465532014387   -23.96189605483504   -99.08265840370042
