! TouchStone data converted from IdEM dataset
# Hz S DB R 50
                   1   -177.9683450838058    90.22512724705804 -4.32018705016947e-11 -3.571081691890027e-07 -4.32018705016947e-11 -3.571081691890027e-07   -177.9683450823046    90.22512976425246
   20020021.01901902    -31.9649357558294    83.01668740401972 -0.003637158781046553   -7.147783028656171 -0.003637158781048483   -7.147783028656171   -31.96483695833142    83.13502139258848
   40040041.03803804   -26.01721301010315    75.81887758721329 -0.01264295633385353   -14.28688962479025 -0.01264295633387671   -14.28688962479025   -26.01701847084191    76.05547655544402
   60060061.05705706    -22.6159821241102     68.6388397662497 -0.02652381927086248   -21.40899456775016 -0.02652381927087215   -21.40899456775016   -22.61569377786042    68.99349340753461
   80080081.07607608   -20.28541176907076    61.48384556626927 -0.04449197859672529   -28.50685792664972  -0.0444919785967185   -28.50685792664972   -20.28503127554265    61.95620774372651
   100100101.0950951    -18.5629526225157    54.35967551863055 -0.06551973033165567   -35.57478152901431 -0.06551973033163819   -35.57478152901431   -18.56248154045464    54.94925018335064
   120120121.1141141   -17.24267595391321    47.27027569765561 -0.08840858376173549   -42.60893268944345 -0.08840858376174718   -42.60893268944345   -17.24211582728227    47.97639365328405
   140140141.1331331   -16.21503041623006     40.2175721185442  -0.1118664455502226   -49.60753050874099  -0.1118664455502304   -49.60753050874099   -16.21438283811271    41.03935793813233
   160160161.1521522   -15.41515851626703    33.20142847958484  -0.1345865959651332   -56.57089465764614  -0.1345865959651626   -56.57089465764614   -15.41442519182307    34.13775517831578
   180180181.1711712   -14.80203709720305    26.21973445245539  -0.1553230903430896   -63.50136770829791  -0.1553230903430896   -63.50136770829791   -14.80121991781681    27.26916207440991
   200200201.1901902    -14.3487822083891    19.26860651679814  -0.1729584923588744   -70.40312965739321  -0.1729584923588666   -70.40312965739321   -14.34788334835283    20.42929887084119
   220220221.2092092   -14.03770492403117    12.34268109814627  -0.1865612135221162   -77.28192670996776  -0.1865612135221182   -77.28192670996776   -14.03672697434596     13.6122920054152
   240240241.2282282   -13.85764957221743    5.435481173926045  -0.1954309369887936   -84.14473632989872  -0.1954309369887887   -84.14473632989872   -13.85659573337019    6.810997090175829
   260260261.2472472   -13.80255280204365   -1.460158072702884  -0.1991314860563347   -90.99938824688415  -0.1991314860563347   -90.99938824688415   -13.80142717110093  0.01736050701756735
   280280281.2662663   -13.87073962699096    -8.35161213500149  -0.1975110097354683   -97.85415790793651  -0.1975110097354605   -97.85415790793651   -13.86954763906899   -6.777200211966917
   300300301.2852853   -14.06474594389415    -15.2459366563731  -0.1907095407549765   -104.7173459788583  -0.1907095407549765   -104.7173459788583   -14.06349507472911   -13.58141661898433
   320320321.3043043   -14.39161686349907   -22.14926710031672  -0.1791539390430441   -111.5968558107514  -0.1791539390430589   -111.5968558107514   -14.39031779197891   -20.40381264160433
   340340341.3233233   -14.86376471726289   -29.06610632787329  -0.1635401058243146   -118.4997807567631   -0.163540105824289   -118.4997807567631   -14.86243333915634   -27.25240294896083
   360360361.3423423   -15.50064741184897   -35.99840361018618  -0.1448022928609695   -125.4320148946351  -0.1448022928609774   -125.4320148946351   -15.49930852574136   -34.13450083980434
   380380381.3613614   -16.33184946032539   -42.94420137555309  -0.1240694833628877   -132.3979036855413  -0.1240694833629033   -132.3979036855413   -16.33054398957674   -41.05674147794382
   400400401.3803804   -17.40285316144384    -49.8952958506556  -0.1026093004465765    -139.399954557779   -0.102609300446557    -139.399954557779   -17.40165358097133   -48.02555380984659
   420420421.3993994   -18.78655962181234   -56.83239638091842 -0.08176076212390027   -146.4386301530945 -0.08176076212390805   -146.4386301530945   -18.78560687498971   -55.04867588885544
   440440441.4184184   -20.60877631325789   -63.71299830386761 -0.06285841640317205   -153.5122475994033 -0.06285841640317011   -153.5122475994033   -20.60838316431113   -62.13952617885788
   460460461.4374374   -23.11411910942964   -70.43325698834749 -0.04715181188333414   -160.6170043191457 -0.04715181188332542   -160.6170043191457   -23.11513561390107   -69.33142762699883
   480480481.4564565       -26.8855435894   -76.66017388098562 -0.03572563028804259    -167.747143649143 -0.03572563028803872    -167.747143649143   -26.89127728933721   -76.74039017243099
   500500501.4754755   -34.05846846496543   -80.34807682631596 -0.02942679150274558   -174.8952619320405 -0.02942679150274171   -174.8952619320405   -34.09975308251929   -85.12239355821795
   520520521.4944945   -43.54857841103039    67.20373734070293 -0.02880510181584425    177.9472560648361 -0.02880510181585005    177.9472560648361   -43.96362916396249    97.41553137648174
   540540541.5135136   -29.78826156606524    75.12800024786043 -0.03407331987522595    170.7897021711713 -0.03407331987522208    170.7897021711713   -29.80280526750348    84.48693884732063
   560560561.5325326   -24.72268365822187    69.60425456034537 -0.04509083306304322     163.641452403592 -0.04509083306306261     163.641452403592   -24.72538093363444    76.79757864557388
   580580581.5515516   -21.62171979481336    63.04730875905556  -0.0613726899766212    156.5113673786514 -0.06137268997664063    156.5113673786514   -21.62156263577829    69.52039385638473
   600600601.5705706   -19.43371360062033    56.20668769568462 -0.08212295616348431    149.4072367706648 -0.08212295616348234    149.4072367706648   -19.43238620939432    62.38666308365142
   620620621.5895896   -17.78749942900468    49.26459653985429  -0.1062887807504543    142.3353126044506  -0.1062887807504728    142.3353126044506   -17.78553738045431    55.33740761596763
   640640641.6086086   -16.50836734875841     42.2884623857561  -0.1326296538615428    135.2999638756382  -0.1326296538615682    135.2999638756382   -16.50599096474184    48.35384522791619
   660660661.6276276   -15.50009981700089    35.30861013789829  -0.1597953819658795    128.3034696131738  -0.1597953819658726    128.3034696131738   -15.49741380015631    41.42818382477712
   680680681.6466466   -14.70424808549157      28.339390492596  -0.1864063450059184    121.3459521877305  -0.1864063450059381    121.3459521877305   -14.70130593448863    34.55568242352884
   700700701.6656656   -14.08299078553769    21.38666852704874  -0.2111304378941197    114.4254400491674  -0.2111304378941345    114.4254400491674    -14.0798197796781    27.73197087223269
   720720721.6846846   -13.61092449405308    14.45105784664228  -0.2327524193663737    107.5380406734744  -0.2327524193663737    107.5380406734744   -13.60753656814307    20.95210976320538
   740740741.7037038   -13.27076946071382    7.529588677285218  -0.2502328474428845    100.6782006154732  -0.2502328474428895    100.6782006154732   -13.26716617797973    14.21036132789038
   760760761.7227228   -13.05099018566393   0.6167237935271914  -0.2627550883321028    93.83902950699722  -0.2627550883321197    93.83902950699722   -13.04716484890233    7.500303790051675
   780780781.7417418   -12.94444348349179   -6.294931538293072  -0.2697598672829957    87.01266734731431  -0.2697598672830087    87.01266734731431    -12.9403815760899   0.8151385679363458
   800800801.7607608   -12.94763245188418   -13.21408829384066  -0.2709674220473804    80.19067808575589  -0.2709674220473794    80.19067808575589    -12.9433108110965    -5.85187375782871
   820820821.7797798   -13.06036316431306   -20.15035169805448  -0.2663875526233611    73.36445603455236  -0.2663875526233611    73.36445603455236   -13.05574784333856   -12.50686863216649
   840840841.7987988   -13.28571858448767   -27.11391513514993  -0.2563178294592035    66.52563413934489  -0.2563178294591985    66.52563413934489   -13.28076096336356   -19.15471141415091
   860860861.8178178   -13.63034395307062   -34.11540319983711  -0.2413300569624759    59.66648403426519  -0.2413300569624809    59.66648403426519   -13.62497410380718   -25.79816058070683
   880880881.8368368   -14.10511515870592   -41.16594488352924  -0.2222449342579918    52.78029697519437  -0.2222449342579829    52.78029697519436   -14.09923046160283   -32.43675105255893
   900900901.8558558   -14.72637007052505   -48.27764315395306  -0.2000948507431786    45.86173242522054  -0.2000948507431698    45.86173242522054   -14.71981498559839   -39.06517055624605
   920920921.8748748    -15.5180782111958   -55.46478598080088  -0.1760750184875147    38.90711788350601  -0.1760750184875029    38.90711788350601    -15.5106063414425    -45.6706420627459
   940940941.8938938   -16.51573230790769   -62.74656435977796  -0.1514837525666937    31.91468047140273  -0.1514837525667133    31.91468047140273   -16.50692995844199   -52.22819840162307
    960960961.912913   -17.77370074834869   -70.15317385102487  -0.1276536718778738    24.88468904298179  -0.1276536718778581    24.88468904298179   -17.76281773539338   -58.69106241533319
    980980981.931932   -19.38030498420662   -77.74054749525342  -0.1058768230200168    17.81948646411015  -0.1058768230200305    17.81948646411015   -19.36582991971509   -64.96826732677137
   1001001001.950951   -21.49266881672754   -85.63123524062603 -0.08732804130173019    10.72339626004036 -0.08732804130173702    10.72339626004036   -21.47105590680217   -70.86325946767418
    1021021021.96997   -24.43318393927094   -94.15696413373641  -0.0729919799652315    3.602496503016178 -0.07299197996521498    3.602496503016178   -24.39384170853959   -75.86109125829748
   1041041041.988989   -29.05041429785103   -104.6038188224516 -0.06359984719655577   -3.535733924785162 -0.06359984719655189   -3.535733924785162   -28.94358569311207   -78.03535475988987
   1061061062.008008   -39.23661442704898   -129.9759177358967 -0.05958172137452442   -10.68287732433615 -0.05958172137451277   -10.68287732433614   -38.25627287988091   -60.26889257504948
   1081081082.027027   -35.98400778117144    86.15039436942826 -0.06103923855340424   -17.83011437228955 -0.06103923855338968   -17.83011437228955   -35.48742129624145    50.56517225196424
   1101101102.046046   -27.99529826034972    68.30806147358375 -0.06774154091368983    -24.9687931391382 -0.06774154091367332    -24.9687931391382   -27.90826993343293     58.7991828047797
   1121121122.065065   -23.98959157626818    58.53434222874753 -0.07914493579679703   -32.09098194032141 -0.07914493579679022   -32.09098194032142   -23.95176516760393    55.66543548558692
   1141141142.084084   -21.38586681746087    50.20462840663309 -0.09443418604359737   -39.18996019688961 -0.09443418604360321    -39.1899601968896   -21.36271885550421    50.42916505271209
   1161161162.103103   -19.51775618977605     42.4012880398443  -0.1125812031211713   -46.26060992805114  -0.1125812031211625   -46.26060992805113   -19.50078347047251    44.46960789260908
   1181181182.122122    -18.1145945844465    34.86036831639638  -0.1324155061115366   -53.29968328112478  -0.1324155061115189   -53.29968328112477   -18.10070788566513    38.19284264175279
   1201201202.141141   -17.04007635289454    27.47708620334701  -0.1527003030968382   -60.30593589341181  -0.1527003030968412   -60.30593589341181   -17.02787462552302    31.76086327791259
    1221221222.16016   -16.21648290464571    20.20007890262101  -0.1722083884749534   -67.28012917290357  -0.1722083884749445   -67.28012917290357   -16.20522681451545    25.24998682308294
   1241241242.179179   -15.59604365497315     12.9993072717321  -0.1897930029578804   -74.22491479865663  -0.1897930029578823   -74.22491479865663   -15.58529332717689    18.69954161179577
   1261261262.198198   -15.14820903948434    5.854118332524868  -0.2044500660389171   -81.14462096443948  -0.2044500660389092   -81.14462096443948   -15.13767244722921    12.13048153769974
   1281281282.217217   -14.85337140457501   -1.251784018177024  -0.2153694691864782   -88.04496225056143  -0.2153694691864752   -88.04496225056143   -14.84283163812942    5.553769396997493
   1301301302.236236   -14.69957588568889   -8.332612761995907  -0.2219741937020079   -94.93269438933974   -0.221974193702001   -94.93269438933973   -14.68885119727148   -1.025257659098777
   1321321322.255255   -14.68079294040361   -15.40155795256283  -0.2239467752050603   -101.8152328320575  -0.2239467752050515   -101.8152328320575   -14.66971070098619   -7.604248602508829
   1341341342.274274   -14.79612563528125   -22.47129495895335  -0.2212430617184877   -108.7002511844651  -0.2212430617184858   -108.7002511844651   -14.78450089971895   -14.18194898113702
   1361361362.293293   -15.04969615971458   -29.55427700646966  -0.2140933665278181   -115.5952732795168  -0.2140933665278211   -115.5952732795168   -15.03730856401255   -20.75656032572187
   1381381382.312312   -15.45117726245629   -36.66303859299168  -0.2029911125682038   -122.5072715663112  -0.2029911125682167   -122.5072715663112    -15.4377395465969   -27.32398801855073
   1401401402.331331   -16.01713671355916   -43.81074699483856  -0.1886690381645056    -129.442284869018  -0.1886690381645006    -129.442284869018   -16.00224412010042   -33.87555363838976
    1421421422.35035    -16.7736608626271   -51.01238358997556  -0.1720631216327343   -136.4050702469472  -0.1720631216327078   -136.4050702469472   -16.75669959936435   -40.39442304008084
   1441441442.369369   -17.76132186790992   -58.28736155662556  -0.1542647007938056    -143.398806104104  -0.1542647007938164    -143.398806104104   -17.74128543515395   -46.84909061758646
   1461461462.388388   -19.04499268564657   -65.66561291874112  -0.1364618848976171   -150.4248659403262  -0.1364618848976171   -150.4248659403262   -19.02006868271921    -53.1796507738245
   1481481482.407408   -20.73504208040742   -73.20319670943546  -0.1198722840368953   -157.4826830543329  -0.1198722840368933   -157.4826830543329   -20.70153563095904   -59.26408354237748
   1501501502.426426   -23.03996918522261   -81.02964795478999  -0.1056702284869116   -164.5697249153498  -0.1056702284869428   -164.5697249153498   -22.98884310057001   -64.81791166883106
   1521521522.445446     -26.429773504151   -89.53886431796664  -0.0949128347384748   -171.6815908961602 -0.09491283473850112   -171.6815908961602   -26.33105473766472   -68.99680308780198
   1541541542.464464   -32.40254124374925   -100.7405980059551 -0.08847023599831895   -178.8122383093329 -0.08847023599831895   -178.8122383093329   -32.06659532927467   -67.72970858210057
   1561561562.483484    -49.3661742394015    157.5175651736252 -0.08696574651171343    174.0456701735355 -0.08696574651171927    174.0456701735355   -42.79641448916246    3.492436963980354
   1581581582.502502    -31.8036420672961    80.16421955978443 -0.09073143829894374    166.9003179972727 -0.09073143829895836    166.9003179972727   -31.56884793545558    65.60437714113907
   1601601602.521522   -25.98709560226732     69.2963217261758 -0.09978348046682738    159.7602178491596 -0.09978348046685079    159.7602178491596   -25.92957266825828    66.28304938178196
    1621621622.54054   -22.58795119014881    60.84837953957185  -0.1138197240530692    152.6336682214002  -0.1138197240530516    152.6336682214002   -22.56296404686059    61.96613250385085
    1641641642.55956   -20.22978047503707     53.0441551144658  -0.1322397012717348     145.528228754711  -0.1322397012717309     145.528228754711   -20.21548581104301    56.33998934731088
   1661661662.578578   -18.46708927874075    45.52129418679216  -0.1541848634718916    138.4502569595995   -0.154184863471871    138.4502569595995   -18.45737071951413    50.19850986231737
   1681681682.597598    -17.0989156677472    38.16043279272476  -0.1785949328339617    131.4045404857694  -0.1785949328339488    131.4045404857694   -17.09147945876316    43.81463542045135
   1701701702.616617   -16.01734318518176    30.91132568772534  -0.2042750051193343    124.3940468914749  -0.2042750051193373    124.3940468914749   -16.01117139696339    37.30732595609085
   1721721722.635636   -15.15783045228393    23.74869158108777  -0.2299676441944315    117.4197993940969  -0.2299676441944206    117.4197993940969   -15.15242337363393    30.73576179935003
   1741741742.654655   -14.47896245252047    16.65743928493212   -0.254424585089718    110.4808748139831  -0.2544245850897081    110.4808748139831   -14.47406257267784    24.13120538872023
   1761761762.673674   -13.95295589375372    9.626868641544448  -0.2764735940511756    103.5745106181759  -0.2764735940511716    103.5745106181759   -13.94843286145336    17.50993962824994
   1781781782.692693   -13.56075809552256    2.648217883729414  -0.2950772381414016    96.69630241202891  -0.2950772381414036    96.69630241202891    -13.5565565149709    10.87930227857541
   1801801802.711712   -13.28934476861153   -4.286338719321981  -0.3093815249238294    89.84047126233592  -0.3093815249238333    89.84047126233592   -13.28545984098948    4.240845522789644
   1821821822.730731   -13.13017161046087   -11.18397855113622  -0.3187533865176643    83.00018104830605  -0.3187533865176683    83.00018104830605   -13.12663881490998   -2.407836435406862
    1841841842.74975   -13.07828534520669   -18.05111557262294  -0.3228066967833976    76.16788849453249  -0.3228066967834116    76.16788849453249    -13.0751785285957     -9.0719647381037
   1861861862.768769   -13.13185030011598   -24.89301393173609   -0.321416908821294    69.33571150384881   -0.321416908821304    69.33571150384881   -13.12928624533453   -15.75883507327248
   1881881882.787788   -13.29197407399391    -31.7131670820297  -0.3147245336760495    62.49580393913978  -0.3147245336760495    62.49580393913978   -13.29012380386864   -22.47736363971188
   1901901902.806807    -13.5627920790452   -38.51240913842854  -0.3031276451193223     55.6407264701313  -0.3031276451193413     55.6407264701313   -13.56190114843001   -29.23790063138761
   1921921922.825826   -13.95183044497542   -45.28764392884132  -0.2872635061424038    48.76380321426834  -0.2872635061423988    48.76380321426834   -13.95225327817015   -36.05237184389081
   1941941942.844845   -14.47073381319999   -52.02994394309788  -0.2679793902513262    41.85945271222035  -0.2679793902513222    41.85945271222035   -14.47299222963398   -42.93491369314965
   1961961962.863864   -15.13654709470598   -58.72150831826853  -0.2462928221170219    34.92347966843771  -0.2462928221170259    34.92347966843771   -15.14143368251392   -49.90335448376663
   1981981982.882883   -15.97392987059495    -65.3303909979474  -0.2233418655072332    27.95331153567024  -0.2233418655072451    27.95331153567025   -15.98270074294516   -56.98229283142287
   2002002002.901902   -17.01907636372398   -71.80051953302888  -0.2003267713688535    20.94816234763385  -0.2003267713688585    20.94816234763385     -17.033837418733   -64.20947400264882
   2022022022.920921   -18.32701713036797   -78.03081881251491  -0.1784452279656132    13.90910623708998  -0.1784452279656132    13.90910623708998   -18.35157448767716   -71.64970857371367
    2042042042.93994   -19.98627145606612   -83.82601666786347  -0.1588245111370089    6.839045753739378  -0.1588245111370168    6.839045753739378   -20.02825521524969   -79.42839793269739
   2062062062.958959   -22.15137508024563   -88.76124409028971  -0.1424548231468604  -0.2574340165308673  -0.1424548231468585  -0.2574340165308673   -22.22856643939066   -87.82559501909226
   2082082082.977978   -25.12507929188168    -91.7169644585716  -0.1301287925489645   -7.374325517613439  -0.1301287925489723   -7.374325517613439   -25.28999994183124   -97.61029267193905
