! TouchStone data converted from IdEM dataset
# Hz S DB R 50
                   1   -177.9466947060876    90.22428305268957 -4.314786816356744e-11 -3.569274914493582e-07 -4.314786816356744e-11 -3.569274914493582e-07    -177.946694706086    90.22428305268951
   20020021.01901902   -31.94329936726351    83.02268717727578 -0.003649868950383734    -7.14415809938652 -0.003649868950365404    -7.14415809938652   -31.94320655148053    83.13459096339314
   40040041.03803804   -25.99563285588444    75.83175823988962 -0.01269503651966145   -14.27959326971378 -0.01269503651967207   -14.27959326971378   -25.99545023302849    76.05551713677802
   60060061.05705706   -22.59449507337229    68.65867222395293 -0.02663915352605915   -21.39793705840244 -0.02663915352607657   -21.39793705840244   -22.59422451111799    68.99411773074846
   80080081.07607608   -20.26404935246207    61.51072591301784 -0.04469010633477587   -28.49191310906225 -0.04469010633477587   -28.49191310906225   -20.26369241583642    61.95757647890793
   100100101.0950951   -18.54173943207582    54.39371454690168  -0.0658146612296325   -35.55579607237492 -0.06581466122962279   -35.55579607237492   -18.54129755322154    54.95156371195668
   120120121.1141141   -17.22162839095158    47.31158653557571 -0.08880807438842994   -42.58573681953658 -0.08880807438844161   -42.58573681953658   -17.22110295001859     47.9798829125457
   140140141.1331331   -16.19415579435283     40.2662567816915  -0.1123717601691876   -49.57994921423889  -0.1123717601691788   -49.57994921423889    -16.1935481762952     41.0442754159568
   160160161.1521522   -15.39445444601278    33.25756409106913  -0.1351927242510567   -56.53875843932306  -0.1351927242510586   -56.53875843932306   -15.39376609383504     34.1443671516554
   180180181.1711712   -14.78149101894392    26.28335962192106  -0.1560193576305832   -63.46452211809591  -0.1560193576305852   -63.46452211809591   -14.78072349447718    27.27774309452867
   200200201.1901902   -14.32837088743233    19.33970802721632  -0.1737294761532819   -70.36144309509589  -0.1737294761532819   -70.36144309509589   -14.32752594941854    20.44012939915464
   220220221.2092092   -14.01739366713882     12.4211806425518  -0.1873878722090996   -77.23529616427504  -0.1873878722091094   -77.23529616427504   -14.01647337880177    13.62566006769262
   240240241.2282282   -13.83739085331715    5.521221400969873  -0.1962918593862045   -84.09309093661626  -0.1962918593861986   -84.09309093661626   -13.83639773747615    6.827204919032269
   260260261.2472472   -13.78228387291891   -1.367429569419925  -0.2000041791420657   -90.94269067578828  -0.2000041791420775   -90.94269067578828   -13.78122114378798  0.03673747184470014
   280280281.2662663   -13.85037849658001   -8.252263159969816  -0.1983731524112962   -97.79240368300184   -0.198373152411308   -97.79240368300184   -13.84925041786042   -6.754276394830896
   300300301.2852853    -14.0441847662447    -15.1404788558753  -0.1915401409016924   -104.6505608959158  -0.1915401409016757   -104.6505608959158   -14.04299722390871   -13.55448708902016
   320320321.3043043    -14.3707111401549   -22.03839893957847  -0.1799343379546911   -111.5250916595152  -0.1799343379547029   -111.5250916595152    -14.3694725951457   -20.37228724233772
   340340341.3233233   -14.84231550082224   -28.95078212741975  -0.1642547785028315     -118.42310959814  -0.1642547785028295     -118.42310959814   -14.84103864774188   -27.21548219774687
   360360361.3423423   -15.47837122454316   -35.87995056114048  -0.1454393960891338   -125.3505222031743  -0.1454393960891093   -125.3505222031743   -15.47707604263592   -34.09104977867512
   380380381.3613614   -16.30832526304531   -42.82452931558647  -0.1246211084394432   -132.3116807474473   -0.124621108439452   -132.3116807474473   -16.30704502182977   -41.00507383083299
   400400401.3803804   -17.37742293075269   -49.77729974701156  -0.1030713969163504   -139.3090906137843  -0.1030713969163446   -139.3090906137843   -17.37621707367662   -47.96303360131409
   420420421.3993994   -18.75812509189545   -56.72080141248498 -0.08213271544276408   -146.3432048778554 -0.08213271544276993   -146.3432048778554   -18.75711018513957   -54.97090534134389
   440440441.4184184   -20.57532921972463   -63.61637562654878 -0.06314228771779233   -153.4123245892804 -0.06314228771779525   -153.4123245892804   -20.57476586577081   -62.03845264456051
   460460461.4374374   -23.07143885179552   -70.36985602665783 -0.04735128129394715   -160.5126262858512 -0.04735128129395685   -160.5126262858512   -23.07203960466401   -69.18998390819893
   480480481.4564565   -26.82232730917344   -76.68134895597916  -0.0358447226222196   -167.6383299566384 -0.03584472262223315   -167.6383299566384   -26.82687296619281   -76.51158194039184
   500500501.4754755   -33.92237030110373   -80.73469148647261 -0.02946849957626349   -174.7820089491431 -0.02946849957625769   -174.7820089491431   -33.95655221412198   -84.56403806026096
   520520521.4944945    -44.0543694906081    68.05180468573968 -0.02877004861947128     178.064971590065 -0.02877004861947902     178.064971590065   -44.46480794696868    96.04423234392789
   540540541.5135136   -29.88350711355429    75.67195424483033 -0.03395861081255686    170.9119168459162 -0.03395861081258591    170.9119168459162   -29.89690814205832    84.15910014258968
   560560561.5325326   -24.77736489018362    70.03830083887955 -0.04488923790317702    163.7682075162045 -0.04488923790315374    163.7682075162045   -24.77992682626165    76.60842396771805
   580580581.5515516   -21.66231816506447    63.44119793233354  -0.0610722619631832    156.6426985997687  -0.0610722619631968    156.6426985997687   -21.66226498380491    69.38537640320247
   600600601.5705706    -19.4679138582388     56.5831650757335 -0.08170714822679151    149.5431632064917 -0.08170714822677008    149.5431632064917   -19.46678150072246    62.28031274146062
   620620621.5895896   -17.81864330847764    49.63386341388723  -0.1057370651205465    142.4758262329514   -0.105737065120528    142.4758262329514    -17.8169215195667     55.2486336033605
   640640641.6086086   -16.53826797661416    42.65597205599828  -0.1319186015863852    135.4450203138605  -0.1319186015863735    135.4450203138605   -16.53615903557529    48.27675469158208
   660660661.6276276   -15.52990642912661     35.6776149550538  -0.1589001208666709    128.4529809791584  -0.1589001208666866    128.4529809791584   -15.52750685401495    41.35919320652715
   680680681.6466466   -14.73478810749449     28.7119763905201  -0.1853022924240924    121.4997825851382  -0.1853022924241082    121.4997825851382   -14.73214737199601     34.4923682749644
   700700701.6656656    -14.1149311815195    21.76424306489857  -0.2097951977522319    114.5834039692852   -0.209795197752231    114.5834039692852   -14.11207453399694    27.67253801367626
   720720721.6846846   -13.64485997541277    14.83460927595923  -0.2311677376887911    107.6999044167778   -0.231167737688809    107.6999044167778   -13.64179838489278    20.89511806114657
   740740741.7037038   -13.30727834285491    7.919839048918276  -0.2483865309578099    100.8436867020377  -0.2483865309578139    100.8436867020377   -13.30401304097807    14.15457463978819
   760760761.7227228   -13.09067592725028    1.014230005746541  -0.2606428015511159    94.00782396972981   -0.260642801551107    94.00782396972981   -13.08720031288482    7.444602125575345
   780780781.7417418   -12.98797134232953   -5.889702580695788   -0.267386730318421    87.18442976616099   -0.267386730318428    87.18442976616099   -12.98427132841263   0.7584653192530483
   800800801.7607608   -12.99576749422064   -12.80069634752004  -0.2683493322138662    80.36505419735339  -0.2683493322138652    80.36505419735339   -12.99182064996666   -5.910544130923653
   820820821.7797798   -13.11401524871324   -19.72832312421972  -0.2635521476623575    73.54109271002308  -0.2635521476623803    73.54109271002308   -13.10978867103669   -12.56855062085294
   840840841.7987988   -13.34600114572738   -26.68267995219866  -0.2533050012770393    66.70419643567951  -0.2533050012770562    66.70419643567951   -13.34144760816866   -19.22042095307799
   860860861.8178178   -13.69865673412686   -33.67422373356979   -0.238191916269036     59.8466738723567   -0.238191916269028     59.8466738723567   -13.69370810804093   -25.86892254626196
   880880881.8368368   -14.18326788213043   -40.71382994844858  -0.2190451241699577    52.96187277314075  -0.2190451241699607    52.96187277314074    -14.1778238035555   -32.51360172131131
   900900901.8558558   -14.81677785817712   -47.81324016389762  -0.1969071179001724    46.04452872991193  -0.1969071179001606    46.04452872991192   -14.81068547281796   -39.14914961936763
   920920921.8748748   -15.62408869699711    -54.9862415762039  -0.1729809799245668    39.09106373009129  -0.1729809799245747    39.09106373009129   -15.61710439185122   -45.76275432961071
   940940941.8938938   -16.64221043060837   -62.25134605723908  -0.1485698499930333    32.09981491663986  -0.1485698499930293    32.09981491663987   -16.63392199622348   -52.32928202938837
    960960961.912913   -17.92816215735488   -69.63787134733528   -0.125007382594643    25.07117214280693  -0.1250073825946606    25.07117214280693    -17.9178143852113   -58.80135816245508
    980980981.931932   -19.57535723473308   -77.20082974579415  -0.1035822928506488    18.00760398395111  -0.1035822928506664    18.00760398395111   -19.56140678563076   -65.08595075044056
   1001001001.950951   -21.75210338338764    -85.0630753627799 -0.08546140680298819    10.91355669023962 -0.08546140680301449    10.91355669023962   -21.73085171801723   -70.97878694096437
    1021021021.96997   -24.81099554466428   -93.56713140821603 -0.07161673577444959    3.795219531108096 -0.07161673577444376    3.795219531108096   -24.77099136815303   -75.92953090462304
   1041041041.988989   -29.71885109964389   -104.1215422681617 -0.06276266790494622   -3.339837494840601 -0.06276266790495205   -3.339837494840601   -29.60197878177079   -77.75757700428247
   1061061062.008008    -41.4812111078319   -134.8877246741843 -0.05930914727573905   -10.48313323084725 -0.05930914727575943   -10.48313323084725   -40.01433571571877   -53.02698014730726
   1081081082.027027   -34.75544501686522    82.91891104531756 -0.06133557220327986   -17.62581819811268  -0.0613355722032818   -17.62581819811268   -34.39311374012674    54.95672249376474
   1101101102.046046   -27.45936586472542    67.78457114541432 -0.06858818210417239   -24.75924658104909 -0.06858818210417433   -24.75924658104909   -27.38550190286205     59.9025323887202
   1121121122.065065   -23.65025866161805     58.4621353447465 -0.08050122615871917   -31.87552899894984 -0.08050122615870166   -31.87552899894985   -23.61655974821955    56.22731163347737
   1141141142.084084   -21.13879489833323    50.30759066009168 -0.09623967042113529   -38.96802031351142 -0.09623967042113138   -38.96802031351142   -21.11767790159065     50.7980658835231
   1161161162.103103   -19.32462737556692    42.59836357944864  -0.1147590736094343   -46.03170557566573  -0.1147590736094294   -46.03170557566572   -19.30892651269613    44.74580162884347
   1181181182.122122   -17.95717073278299    35.11777656089487  -0.1348768992572148   -53.06346028152057  -0.1348768992572138   -53.06346028152057   -17.94420643678169    38.41737000305753
   1201201202.141141   -16.90826955491114    27.77765769558386  -0.1553490812830006   -60.06217560642419  -0.1553490812830094   -60.06217560642419   -16.89680252465264    31.95420492355849
    1221221222.16016   -16.10414116029486    20.53381858699068  -0.1749460492319839   -67.02875252043842  -0.1749460492319633   -67.02875252043842    -16.0935068109933    25.42374063079972
   1241241242.179179   -15.49915565981477     13.3597424858559  -0.1925234108552025   -73.96597872236755  -0.1925234108551907   -73.96597872236755   -15.48895227679878    18.86087192739136
   1261261262.198198   -15.06403652574138    6.236653714794266  -0.2070837722683859   -80.87830831640464  -0.2070837722683988   -80.87830831640464   -15.05399261884472    12.28410923453202
   1281281282.217217   -14.77999039557388  -0.8506934262826723  -0.2178274561547522   -87.77156628824939  -0.2178274561547454   -87.77156628824939   -14.76990004300762    5.702980115013951
   1301301302.236236   -14.63561815306925   -7.915915428838069   -0.224190942721096   -94.65259904201095   -0.224190942721097   -94.65259904201095   -14.62530473880639  -0.8780430057151585
   1321321322.255255   -14.62529434381275   -14.97187768794335  -0.2258725976972681   -101.5288897999949  -0.2258725976972631   -101.5288897999949   -14.61458617967623   -7.457112035535794
   1341341342.274274   -14.74843653108106   -22.03111360316795  -0.2228456571957999   -108.4081548011963   -0.222845657195792   -108.4081548011963   -14.73714596337456   -14.03321317429179
   1361361362.293293   -15.00943186783261   -29.10608133943511  -0.2153585777215442   -115.2979339739874   -0.215358577721555   -115.2979339739874    -14.9973318797803   -20.60456443527796
   1381381382.312312   -15.41819900610414    -36.2094717087624  -0.2039228465159889   -122.2051887493113  -0.2039228465159801   -122.2051887493113   -15.40499051835791   -27.16685594589236
   1401401402.331331   -15.99156238171148   -43.35480889659686  -0.1892883206800266   -129.1359201531835  -0.1892883206800266   -129.1359201531835   -15.97682097433756   -33.71090359114707
    1421421422.35035   -16.75591512829308   -50.55775241916542  -0.1724062606709375   -136.0948220817843  -0.1724062606709355   -136.0948220817843   -16.73899399633097   -40.21893498845779
   1441441442.369369   -17.75225345157543   -57.83898021306195  -0.1543805599320018   -143.0849871277478  -0.1543805599320215   -143.0849871277478   -17.73208785869797   -46.65775849629627
   1461461462.388388   -19.04613013342139   -65.23088802680734  -0.1364083166987119   -150.1076845528913   -0.136408316698708   -150.1076845528913   -19.02079592919328   -52.96429584537761
   1481481482.407408   -20.74918613787385    -72.7947907083032  -0.1197118447361472    -157.162230819752  -0.1197118447361315    -157.162230819752   -20.71474483515912   -59.00991123513766
   1501501502.426426   -23.07277381599318    -80.6732967964052  -0.1054653839266586   -164.2459713120952  -0.1054653839266528   -164.2459713120952   -23.01954083043362   -64.49379301674239
   1521521522.445446   -26.49515493982449   -89.30293129690739  -0.0947209592727062   -171.3543865944191 -0.09472095927269839   -171.3543865944191   -26.39073726912972    -68.5181439649747
   1541541542.464464   -32.55238804838723   -100.9428640182518 -0.08833878201778672   -178.4813275315973 -0.08833878201778964   -178.4813275315973   -32.18822092645455   -66.70659291513104
   1561561562.483484   -48.40727586811003    151.5564767812356 -0.08692800140510412    174.3806285037694 -0.08692800140511192    174.3806285037694   -42.38880775531734    7.147557543006697
   1581581582.502502   -31.61680554706564    81.21152245740414 -0.09080327136376812     167.239721579523 -0.09080327136378274     167.239721579523   -31.37899671001163    65.38948425172256
   1601601602.521522   -25.89427940504755    70.18033424899545 -0.09996140805993475    160.1044869711921 -0.09996140805992013    160.1044869711921   -25.83501347976879    66.12152330147019
    1621621622.54054   -22.52967280321965    61.66395233303032  -0.1140804946369319    152.9832092028489  -0.1140804946369319    152.9832092028489   -22.50401963892802    61.86363834370913
    1641641642.55956   -20.19111534101507    53.82585623073857  -0.1325414438264987    145.8833979974585  -0.1325414438264752    145.8833979974585   -20.17663121442032    56.27704170261143
   1661661662.578578   -18.44214656037522    46.28465399997316  -0.1544696818867481    138.8113285940128  -0.1544696818867707    138.8113285940128   -18.43247472071882    50.16398005291003
   1681681682.597598   -17.08483298500247    38.91352744066739  -0.1787926940788795    131.7716800797796  -0.1787926940788647    131.7716800797796   -17.07757044239805    43.80219656079566
   1701701702.616617   -16.01257675347447    31.65867890151225   -0.204307980825327    124.7672929144799  -0.2043079808253369    124.7672929144799   -16.00664888747011    37.31317988756476
   1721721722.635636   -15.16152226799868    24.49286353047409  -0.2297556315140326    117.7990532687805  -0.2297556315140405    117.7990532687805   -15.15639631218088    30.75751101519231
   1741741742.654655   -14.49066752571826    17.39976868862511  -0.2538901481293573     110.865899604936  -0.2538901481293563     110.865899604936   -14.48606445922747    24.16728060604459
   1761761762.673674    -13.9725147345029    10.36785719780652  -0.2755471171988976    103.9649378067315  -0.2755471171989056    103.9649378067315   -13.96828856662941    17.55930215448772
   1781781782.692693   -13.58823688519459    3.387746128006778  -0.2937015488557593    97.09164583715388  -0.2937015488557633    97.09164583715388   -13.58431948584494    10.94129308465694
   1801801802.711712    -13.3250116682251   -3.548882895498472  -0.3075159089413569    90.24014715256595  -0.3075159089413599    90.24014715256595   -13.32138666921557    4.315120144071605
   1821821822.730731   -13.17449576639751   -10.44962135768931  -0.3163768707036109    83.40353307215332  -0.3163768707036129    83.40353307215332   -13.17118706572532    -2.32131705351316
    1841841842.74975   -13.13195352113164   -17.32125116921062  -0.3199205079051668    76.57421683890479  -0.3199205079051688    76.57421683890479   -13.12902242691702   -8.972901690666186
   1861861862.768769     -13.195800914176    -24.1693829418633  -0.3180460302607185    69.74430507348114  -0.3180460302607014    69.74430507348114   -13.19334980158614   -15.64652244406765
   1881881882.787788   -13.36745238466373   -30.99785756961953  -0.3109182813105765    62.90597478959428  -0.3109182813105695    62.90597478959428   -13.36563497789017   -22.35058170644892
   1901901902.806807   -13.65143498324167   -37.80788129836996  -0.2989591766303342    56.05184549913844  -0.2989591766303371    56.05184549913844   -13.65047537959887   -29.09476401036556
   1921921922.825826   -14.05579664675104    -44.5967817256176  -0.2828281753625942    49.17533592507034  -0.2828281753626132    49.17533592507033    -14.0560219950735   -35.89011776931045
   1941941942.844845   -14.59290810159559   -51.35613629472465  -0.2633918710952067    42.27099354376701  -0.2633918710951779    42.27099354376701   -14.59480493718529   -42.74960466164851
   1961961962.863864   -15.28087265774346   -58.06875410200598  -0.2416829654035733    35.33478301095157  -0.2416829654035683    35.33478301095157   -15.28518753548467   -49.68945218409166
   1981981982.882883   -16.14597522436886   -64.70338899340594  -0.2188493236057422     28.3643172007139  -0.2188493236057353     28.3643172007139   -16.15390480333499   -56.73203319867646
   2002002002.901902   -17.22706279149376   -71.20458680387658  -0.1960945311922207    21.35901305124288  -0.1960945311922345    21.35901305124288   -17.24064085801351   -63.91193745408728
   2022022022.920921   -18.58383042855207   -77.47105179914868   -0.174612325069532    14.32015470488171   -0.174612325069534    14.32015470488171   -18.60679787119168    -71.2894743613881
    2042042042.93994   -20.31382171597325   -83.30337339207574  -0.1555183393836467     7.25084947187236  -0.1555183393836477     7.25084947187236   -20.35386200903215   -78.98399066208039
   2062062062.958959   -22.59143751011643   -88.25485998876296  -0.1397835796119228   0.1558684479798248  -0.1397835796119199   0.1558684479798249   -22.66712503845678   -87.27070595809401
   2082082082.977978   -25.77188365160508   -91.08866998098699  -0.1281746757791635   -6.958626997294846  -0.1281746757791517   -6.958626997294846   -25.94166792666629   -96.94552382431867
