! TouchStone data converted from IdEM dataset
# Hz S DB R 50
                   1   -178.1139026216977    90.23086947551042 -4.356638628405366e-11 -3.583112611143859e-07 -4.356638628405366e-11 -3.583112611143859e-07   -178.1139026216952    90.23086947551036
   20020021.01901902   -32.11039652913365     82.9764295757462 -0.003553403390611659   -7.171920224392643 -0.003553403390629989   -7.171920224392643   -32.11025637216037    83.13841191180462
   40040041.03803804   -26.16228597392424    75.73239200460964 -0.01229963708456725   -14.33547145851969  -0.0122996370845885   -14.33547145851969   -26.16200905425446    76.05614237897831
   60060061.05705706   -22.76041224514416    68.50566740450017 -0.02576348649719983    -21.4826144016609 -0.02576348649719208   -21.48261440166089   -22.76000098939475    68.99067712472646
   80080081.07607608   -20.42897949532001    61.30336670166236 -0.04318592257368512   -28.60635002146067 -0.04318592257368706   -28.60635002146067   -20.42843625992425    61.94882919740119
   100100101.0950951   -18.70548454414461     54.1311791582657 -0.06357582628729598   -35.70115983552832 -0.06357582628729404   -35.70115983552832   -18.70481181926035    54.93596068653976
   120120121.1141141    -17.3840531774111    46.99304188428179 -0.08577608144293034   -42.76331976837066 -0.08577608144291671   -42.76331976837066   -17.38325370948999    47.95563627054996
   140140141.1331331   -16.35519460047024    39.89096154339249  -0.1085375494187407   -49.79108327056445  -0.1085375494187436   -49.79108327056444   -16.35427150503654     41.0094266777995
   160160161.1521522   -15.55411605753917    32.82497451004458  -0.1305950107185385   -56.78473309392299  -0.1305950107185375   -56.78473309392299    -15.5530729489409    34.09684580352818
   180180181.1711712   -14.93986235096641    25.79323435621545  -0.1507399536633156   -63.74651163672604  -0.1507399536633234   -63.74651163672604    -14.9387035085313    27.21540778852961
   200200201.1901902   -14.48562099201598    18.79221094699131  -0.1678862647379494   -70.68044705562905  -0.1678862647379553   -70.68044705562905   -14.48435158475212    20.36078474357723
   220220221.2092092   -14.17377991784016    11.81698364938159  -0.1811261504239567   -77.59209576681647  -0.1811261504239725   -77.59209576681647   -14.17240631888222    13.52704218399623
   240240241.2282282    -13.9932697242171    4.861613120739054  -0.1897747544555128   -84.48822210393375  -0.1897747544555335   -84.48822210393375    -13.9917999632195    6.706928078267388
   260260261.2472472   -13.93812960538435   -2.080418432594834  -0.1934027763708814   -91.37643388598764  -0.1934027763708695   -91.37643388598764   -13.93657403724996  -0.1078085287089701
   280280281.2662663   -14.00681444670968    -9.01569976182747  -0.1918568959380389   -98.26478974266813   -0.191856895938035   -98.26478974266813   -14.00518676951707   -6.926094003653618
   300300301.2852853   -14.20203490580406   -15.95030344950048   -0.185267997114504   -105.1613913818688  -0.1852679971145128   -105.1613913818688   -14.20035376276318   -13.75723033391906
   320320321.3043043   -14.53108413305471   -22.88908400982008  -0.1740471584218123   -112.0739724024414  -0.1740471584217976   -112.0739724024414   -14.52937573346215   -20.61065881943631
   340340341.3233233   -15.00674330018071   -29.83478293753828  -0.1588692634456262   -119.0094952200909  -0.1588692634456164   -119.0094952200909    -15.0050459103211   -27.49585293251547
   360360361.3423423   -15.64904348449301   -36.78677038222048  -0.1406440295488063   -125.9737692502771  -0.1406440295488141   -125.9737692502771   -15.64741556558268   -34.42246401303706
   380380381.3613614   -16.48850302694704   -43.73903618687928  -0.1204743935735044   -132.9711063313079  -0.1204743935734898   -132.9711063313079   -16.48703903986578   -41.40097877187578
   400400401.3803804   -17.57221548006662   -50.67647833686968 -0.09960264211007544   -140.0040327181691 -0.09960264211005986   -140.0040327181691    -17.5710794080224   -48.44449345768305
   420420421.3993994    -18.9760818504111   -57.56687928271528 -0.07934548924298446   -147.0730797169099 -0.07934548924297473   -147.0730797169099   -18.97558706683552   -55.57321414150316
   440440441.4184184   -20.83213115856038   -64.34024224862929 -0.06102046249706763   -154.1766758168524 -0.06102046249705015   -154.1766758168524   -20.83296401127177    -62.8267479725761
   460460461.4374374   -23.40018187757349   -70.82225530585498 -0.04586732811434225   -161.3111606989913 -0.04586732811432771   -161.3111606989913   -23.40419874114968   -70.30431759152923
   480480481.4564565   -27.31225005793191   -76.43082728025999 -0.03496963036458411   -168.4709348444974  -0.0349696303645967   -168.4709348444974   -27.32678139672641    -78.3489289186784
   500500501.4754755   -34.98995335729422   -77.24029989718242 -0.02918241784752472   -175.6487475512665 -0.02918241784754407   -175.6487475512665   -35.09039397480124   -89.35546981303843
   520520521.4944945   -40.75492448651939    62.86048431337589 -0.02907255580163753    177.1638879675969 -0.02907255580163753    177.1638879675969   -41.13971932481539    103.6414710583832
   540540541.5135136   -29.17032020572863    71.66664105697257 -0.03487744126565334    169.9761788971756 -0.03487744126566496    169.9761788971756     -29.190708041524    86.49641203111028
   560560561.5325326     -24.361234133643    66.77397104835366 -0.04648639841857692    162.7974763160777 -0.04648639841857594    162.7974763160777   -24.36452901508516    77.99435327415117
   580580581.5515516   -21.35104824368036     60.4600496748817 -0.06344672304577208    155.6366861283476 -0.06344672304577985    155.6366861283476   -21.35012375395261    70.38212928516701
   600600601.5705706   -19.20450333438739    53.72699240957274  -0.0849936675130062    148.5017173925423 -0.08499366751301204    148.5017173925423   -19.20187578074445    63.06588295866172
   620620621.5895896   -17.57808905863187    46.83010988526542  -0.1101011173368457    141.3990125218183  -0.1101011173368457    141.3990125218183   -17.57456259434709    55.90213626971474
   640640641.6086086   -16.30695146995745    39.86550579279671  -0.1375477745158245    134.3331924505623  -0.1375477745158068    134.3331924505623   -16.30285537270696    48.84063032630902
   660660661.6276276   -15.29918778543127    32.87710302994356  -0.1659926283676979    127.3068351706829  -0.1659926283677048    127.3068351706829   -15.29467788286247    41.85932951541015
   680680681.6466466   -14.49845589255976    25.88659425574077  -0.1940534232074926    120.3203910641514  -0.1940534232074847    120.3203910641514   -14.49361223782941    34.94623465328687
   700700701.6656656    -13.8679958015077     18.9041978817061  -0.2203825661779155    113.3722258169814  -0.2203825661779324    113.3722258169814   -13.86286056339786    28.09298459242446
   720720721.6846846   -13.38289425451655    11.93328519393509  -0.2437361607400488    106.4587730112168  -0.2437361607400636    106.4587730112168   -13.37748825798127    21.29233257015266
   740740741.7037038   -13.02600212665345     4.97270334326667  -0.2630332674428564    99.57477419491219  -0.2630332674428405    99.57477419491219   -13.02033256344135    14.53715740378917
   760760761.7227228   -12.78565067813155   -1.981879818091527  -0.2774037987247439    92.71358377402213  -0.2774037987247429    92.71358377402213   -12.77971465816865    7.820177017179048
   780780781.7417418   -12.65433520049837   -8.937094463144883  -0.2862244623405575     85.8675182979389  -0.2862244623405715     85.8675182979389   -12.64812102852175    1.134025928357857
   800800801.7607608   -12.62796590311405   -15.90123824685874  -0.2891428012777226    79.02823326698291  -0.2891428012777126    79.02823326698291   -12.62145281760683   -5.528451708776488
   820820821.7797798   -12.70548816154951   -22.88381038801804  -0.2860896521526667    72.18711423258104  -0.2860896521526746    72.18711423258104     -12.698644692746   -12.17375560952276
   840840841.7987988   -12.88878121111086   -29.89518735388104  -0.2772803394813274    65.33567173725058  -0.2772803394813303    65.33567173725058   -12.88156189502514   -18.80714186219839
   860860861.8178178   -13.18281254707683   -36.94646059763684  -0.2632047579973197    58.46593096025551  -0.2632047579973287    58.46593096025551   -13.17515224896855    -25.4318655487914
   880880881.8368368   -13.59608430697537   -44.04950466055292  -0.2446063035674435    51.57080657244409  -0.2446063035674345    51.57080657244409   -13.58788862226653   -32.04817172984739
   900900901.8558558   -14.14148147690237   -51.21742037955188  -0.2224495292973008    44.64445139382428  -0.2224495292973157    44.64445139382428   -14.13261015589343   -38.65186118255657
   920920921.8748748   -14.83775289730275   -58.46564676269659  -0.1978765463223982    37.68256447070576  -0.1978765463224051    37.68256447070575   -14.82798997548491   -45.23206947890972
   940940941.8938938   -15.71209141802776   -65.81436183066255  -0.1721526453870912    30.68264095777278  -0.1721526453870745    30.68264095777277   -15.70108808971514   -51.76747378672982
    960960961.912913   -16.80479137129432   -73.29359030699253   -0.146602418094246    23.64414379295041  -0.1466024180942401    23.64414379295041   -16.79194791388064   -58.21909237933346
    980980981.931932   -18.17819879021584   -80.95462669710935   -0.122538759960663    16.56857681969934  -0.1225387599606542    16.56857681969934   -18.16239439083424   -64.51495099145552
   1001001001.950951    -19.9355575460606   -88.89834861584009  -0.1011884002809452    9.459441870159029  -0.1011884002809364    9.459441870159031   -19.91444088932369   -70.51272646399507
    1021021021.96997   -22.26628115429506   -97.35799813984295 -0.08361879274144429    2.322069059950203 -0.08361879274145402    2.322069059950203   -22.23400117392428   -75.89122889867424
   1041041041.988989   -25.57870814415504   -107.0146065365276  -0.0706720230988496   -4.836679945823532 -0.07067202309886904   -4.836679945823532   -25.51600398359164    -79.7408291934553
   1061061062.008008   -31.04348924427005   -120.9531804834947 -0.06291156176997091   -12.00882278339965  -0.0629115617699884   -12.00882278339965   -30.84002673722214   -78.10913933905842
   1081081082.027027   -42.86571657398142    173.9324951862864 -0.06058702205773044   -19.18575474589091 -0.06058702205774987    -19.1857547458909   -40.52638521856672   -27.38730537460161
   1101101102.046046   -32.63242800675926    75.56439684343704 -0.06362056683727046   -26.35879643747528 -0.06362056683727824   -26.35879643747528   -32.34090007328459    47.06191699756979
   1121121122.065065   -26.63080812759429    59.68891538736035  -0.0716164359923091   -33.51974554348977 -0.07161643599229355   -33.51974554348977    -26.5503277575259    51.11749826491877
   1141141142.084084   -23.21641639292509    49.66194388381214 -0.08389261823738106   -40.66138677989694 -0.08389261823740542   -40.66138677989694    -23.1756012451972    47.79354443357843
   1161161162.103103   -20.90734715583847     41.0800535926874  -0.0995314167499792   -47.77791973216033 -0.09953141674998311   -47.77791973216033   -20.88024858304547    42.63145644453583
   1181181182.122122   -19.22448517594973    33.08508065054752  -0.1174439606161044   -54.86527503216188  -0.1174439606161044   -54.86527503216188   -19.20361707593439    36.76190852017809
   1201201202.141141   -17.95481674143747    25.39667119457951  -0.1364428367700571   -61.92130279180763  -0.1364428367700591   -61.92130279180763   -17.93722923816618    30.56034500625307
    1221221222.16016   -16.98581335805418    17.89527942647972  -0.1553169944326047   -68.94583073616852  -0.1553169944326067   -68.94583073616853   -16.97010251358941    24.18613299389323
   1241241242.179179   -16.25157954323592     10.5197244649014  -0.1729037525906989   -75.94060080311357  -0.1729037525906929   -75.94060080311358   -16.23698298326254    17.71707944277741
   1261261262.198198   -15.71113771913738    3.233599208939756   -0.188153851962498   -82.90910075647867  -0.1881538519625098   -82.90910075647867   -15.69719585498095    11.19418824132703
   1281281282.217217   -15.33838715130443   -3.987868778266149  -0.2001867414749075   -89.85631129075874  -0.2001867414749095   -89.85631129075874   -15.32479544495222    4.639696825407106
   1301301302.236236   -15.11704444088574    -11.1635624209106  -0.2083344294057014    -96.7883897415106  -0.2083344294057074    -96.7883897415106   -15.10358050039033   -1.934494384152887
   1321321322.255255   -15.03800124972704   -18.30915424944744  -0.2121731052836936   -103.7123099273784  -0.2121731052836936   -103.7123099273784   -15.02448411303243   -8.522321324355207
   1341341342.274274   -15.09801636277875   -25.43838743230971  -0.2115422938827584   -110.6354750631368  -0.2115422938827811   -110.6354750631368    -15.0842798520687   -15.12079542235411
   1361361362.293293   -15.29928108161297   -32.56368769313755  -0.2065515656620232   -117.5653181999293  -0.2065515656620301   -117.5653181999293   -15.28515196204711   -21.72801224435629
   1381381382.312312    -15.6497173843576   -39.69647170789648  -0.1975748875498045   -124.5089030737877  -0.1975748875498242   -124.5089030737877   -15.63499176391276   -28.34140441626949
   1401401402.331331   -16.16410659936106   -46.84738172435912  -0.1852326771398644   -131.4725380032864  -0.1852326771398841   -131.4725380032864   -16.14851705603886   -34.95582461344674
    1421421422.35035   -16.86644211811301   -54.02666319672154   -0.170361656207197   -138.4614165952745  -0.1703616562071852   -138.4614165952745   -16.84960253814418   -41.56090913848934
   1441441442.369369   -17.79444870407327   -61.24502047213691  -0.1539728094911006   -145.4793011190236  -0.1539728094911045   -145.4793011190236    -17.7757481096792   -48.13663798111165
   1461461462.388388     -19.008488621458   -68.51569373546359  -0.1371982329589335   -152.5282667522744  -0.1371982329589385   -152.5282667522744   -18.98685944715207   -54.64441829972125
   1481481482.407408   -20.61057124909219   -75.85984909408056  -0.1212284370971539   -159.6085264580393  -0.1212284370971558   -159.6085264580393   -20.58390380896038   -61.00589253217528
   1501501502.426426   -22.79063215609054   -83.32265418800579  -0.1072427112288373    -166.718355857813  -0.1072427112288666    -166.718355857813   -22.75396520521338   -67.04177917375124
   1521521522.445446   -25.96559090259227    -91.0352304590271 -0.09633631791483939   -173.8541340859112 -0.09633631791482965   -173.8541340859112   -25.90343035959048   -72.23950344745643
   1541541542.464464   -31.39305264447702   -99.61069461292145 -0.08944934931124945     178.989490348104   -0.089449349311267     178.989490348104   -31.21868031464405   -74.30652401611941
   1561561562.483484   -50.48460558127873   -130.3390810653433  -0.0873027665305777    171.8193100128821 -0.08730276653057964    171.8193100128821   -44.73348653280128   -30.45160732078326
   1581581582.502502   -33.14117026665197    72.10093902834313 -0.09034720068727804     164.643159249721 -0.09034720068726732     164.643159249721   -32.95159179096232    67.89564865322687
   1601601602.521522   -26.60851842468566    63.01108711746703 -0.09872936029669233     157.469431865848 -0.09872936029670794     157.469431865848   -26.56741654367224     67.7335911326219
    1621621622.54054   -22.96174963631685    55.20304540775005  -0.1122793720967818    150.3065531676453  -0.1122793720967847    150.3065531676453    -22.9429000407375    62.85405608206479
    1641641642.55956   -20.46616615876153    47.70991880080025  -0.1305202837461403    143.1624497279638  -0.1305202837461305    143.1624497279638   -20.45403129730981    56.88035619040605
   1661661662.578578   -18.60869744198775    40.36119476463263   -0.152698636976213    136.0440604180095  -0.1526986369762257    136.0440604180095   -18.59930872539005    50.49672570162503
   1681681682.597598   -17.16634689550692    33.10595238290045  -0.1778329011550454    128.9569264121545  -0.1778329011550553    128.9569264121545   -17.15831878035051    43.92715571556165
   1701701702.616617   -16.02176595741574    25.92492693666844  -0.2047750068525138    121.9048874113737  -0.2047750068525108    121.9048874113737   -16.01453171255207    37.26694228778688
   1721721722.635636   -15.10557953904311     18.8093454516531  -0.2322794512668371    114.8898984788195  -0.2322794512668193    114.8898984788195   -15.09889455194071     30.5626994118864
   1741741742.654655   -14.37351006436519    11.75407951044004  -0.2590744826662654    107.9119691380949  -0.2590744826662476    107.9119691380949   -14.36727888934823    23.83844048215097
   1761761762.673674   -13.79583761487008    4.755074654900478  -0.2839305583187821    100.9692158268075  -0.2839305583187821    100.9692158268075    -13.7900453581525    17.10589652080397
   1781781782.692693   -13.35201910114706   -2.191618333060335  -0.3057223555759511    94.05801164680449   -0.305722355575933    94.05801164680449   -13.34670260943959    10.36923272564784
   1801801802.711712   -13.02773585012871    -9.09009284927224  -0.3234818234990426    87.17321387384597  -0.3234818234990536    87.17321387384597   -13.02297252401796    3.627476775877211
   1821821822.730731   -12.81319437642587   -15.94445379910315  -0.3364408630013561    80.30844936570439  -0.3364408630013582    80.30844936570439   -12.80910027850705    -3.12410285938737
    1841841842.74975   -12.70212748639459   -22.75844055963044   -0.344063069763838     73.4564398537638  -0.3440630697638359     73.4564398537638   -12.69886171821739   -9.893164959289539
   1861861862.768769    -12.6912199755001   -29.53485354050802  -0.3460645083350404     66.6093519907167  -0.3460645083350444     66.6093519907167   -12.68899478802693   -16.68980234798684
   1881881882.787788   -12.77981915291516   -36.27477761878599  -0.3424237257083623    59.75915993124662  -0.3424237257083763    59.75915993124662   -12.77891690600206    -23.5263185891766
   1901901902.806807   -12.96986521705877    -42.9765454995544  -0.3333812294711657    52.89801036715664  -0.3333812294711928    52.89801036715664   -12.97066503095198   -30.41728996106838
   1921921922.825826   -13.26602560648138   -49.63431717802256  -0.3194285515509735    46.01858085492428  -0.3194285515509814    46.01858085492427   -13.26904510859528   -37.38000582772316
   1941941942.844845   -13.67606004506607   -56.23604009449751  -0.3012869085167313    39.11442181322759  -0.3012869085167392    39.11442181322759      -13.68202214069   -44.43548829797853
   1961961962.863864   -14.21149407246102   -62.76034463159642  -0.2798754660491359    32.18027089409291  -0.2798754660491428     32.1802708940929   -14.22143743992859   -51.61048153310212
   1981981982.882883   -14.88875723502601   -69.17150280774737  -0.2562694151058125    25.21232600746561  -0.2562694151058255    25.21232600746561   -14.90422747809816   -58.94117771147658
   2002002002.901902   -15.73108076739705     -75.410649041292  -0.2316485347909308    18.20846084213804  -0.2316485347909437    18.20846084213804   -15.75447984607425   -66.48026342598449
   2022022022.920921   -16.77171518135636   -81.37928367388906  -0.2072376654586578    11.16836522020194  -0.2072376654586736    11.16836522020194   -16.80698530581045   -74.31079982095227
    2042042042.93994   -18.05956066024189   -86.90550066748477  -0.1842414897529992    4.093593062981261  -0.1842414897529834     4.09359306298126    -18.1136424302337   -82.57547808704294
   2062062062.958959   -19.66936802728143   -91.66745795364328  -0.1637770849110118   -3.012495998573002  -0.1637770849109813   -3.012495998573001   -19.75566910427304   -91.54456351946938
   2082082082.977978   -21.72039553435473   -94.99674237125646  -0.1468086615194472   -10.14490882646082  -0.1468086615194423   -10.14490882646082   -21.86830626361724   -101.7963469935877
