! TouchStone data converted from IdEM dataset
# Hz S DB R 50
                   1   -177.9919973135744    90.22605411031746 -4.325973014968819e-11 -3.573050388442825e-07 -4.325973014968819e-11 -3.573050388442825e-07   -177.9919973150822    90.22605158625929
   20020021.01901902   -31.98857258542866    83.01013644257576 -0.003623348789401962   -7.151732798561392 -0.00362334878941161   -7.151732798561392   -31.98846720331403    83.13551348254708
   40040041.03803804   -26.04078798038628    75.80481106641338 -0.01258636381928437   -14.29483973162849 -0.01258636381927471   -14.29483973162849   -26.04058032422637    76.05547355205414
   60060061.05705706   -22.63945464402966    68.61718098412572 -0.02639849072497759    -21.4210425980038 -0.02639849072497759    -21.4210425980038   -22.63914672365079    68.99287218729327
   80080081.07607608   -20.30874706129524    61.45449070627897 -0.04427668607210807   -28.52314108321795 -0.04427668607212164   -28.52314108321795   -20.30834064242737    61.95479279619229
   100100101.0950951   -18.58612346712213    54.32250502941435 -0.06519926069348135   -35.59546657039039 -0.06519926069349301   -35.59546657039039   -18.58562025026587    54.94682255050085
   120120121.1141141   -17.26566405424457    47.22516777121904 -0.08797452568211732   -42.63420425168523 -0.08797452568210465   -42.63420425168523   -17.26506576667149    47.97270087511335
   140140141.1331331   -16.23782737896072    40.16441734682694  -0.1113174495831906    -49.6375789107869  -0.1113174495832072    -49.6375789107869   -16.23713584642966    41.03412383039104
   160160161.1521522   -15.43776652568644    33.14014488170145  -0.1339281371006256   -56.60590420232904  -0.1339281371006236   -56.60590420232904   -15.43698374607647    34.13068825082875
   180180181.1711712   -14.82446942900313    26.15028234013218  -0.1545668028858322   -63.54150629998333  -0.1545668028858145   -63.54150629998333   -14.82359766116644    27.25996149380999
   200200201.1901902      -14.37106378593    19.19100303824064  -0.1721211709289447   -70.44854031758339  -0.1721211709289467   -70.44854031758339   -14.37010566682922    20.41765697787739
   220220221.2092092    -14.0598731800694    12.25701474536351  -0.1856635826223263   -77.33272133408724  -0.1856635826223233   -77.33272133408724   -14.05883188742821    13.59789243340179
   240240241.2282282   -13.87975595748082    5.341927068819665  -0.1944962888086383    -84.2009918258679  -0.1944962888086205    -84.2009918258679   -13.87863544399464    6.793507416267287
   260260261.2472472   -13.82466540485469   -1.561320611466319  -0.1981842768643903   -91.06114504425865  -0.1981842768643863   -91.06114504425865   -13.82347074613419 -0.003581996464922435
   280280281.2662663   -13.89294757877048   -8.459977237159833   -0.196575493844507   -97.92142072400009  -0.1965754938445001   -97.92142072400009   -13.89168550660666   -6.802011925140415
   300300301.2852853   -14.08716666190618   -15.36094060151836  -0.1898085108461796   -104.7900866622229  -0.1898085108461835   -104.7900866622229   -14.08584640981655   -13.61060367186853
   320320321.3043043   -14.41440787738545   -22.27014097263011  -0.1783076341617379   -111.6750180351135  -0.1783076341617311   -111.6750180351135   -14.41304257448532   -20.43802613444274
   340340341.3233233   -14.88714316250819   -29.19179988101859  -0.1627653434759592   -118.5832862884457  -0.1627653434759553   -118.5832862884457   -14.88575223907496   -27.29252493813709
   360360361.3423423   -15.52492298606845   -36.12745607152941    -0.14411187773249     -125.52077109245  -0.1441118777324988     -125.52077109245   -15.52353656116163   -34.18178351631238
   380380381.3613614   -16.35748254213208   -43.07450951581137  -0.1234719395726736    -132.491811803225  -0.1234719395726658    -132.491811803225   -16.35614999202352   -41.11304569289192
   400400401.3803804   -17.43056382874727   -50.02366820377816  -0.1021089636893139   -139.4989183115241  -0.1021089636893236   -139.4989183115241   -17.42937203532885   -48.09379026934054
   420420421.3993994    -18.8175506935661   -56.95361498432877 -0.08135824973199626   -146.5425639057708 -0.08135824973198848   -146.5425639057708   -18.81666760329129   -55.13370710332416
   440440441.4184184    -20.6452493827885   -63.81757292664719 -0.06255146562743517   -153.6210834269139 -0.06255146562744487   -153.6210834269139   -20.64504573441734    -62.2502772951163
   460460461.4374374   -23.16070743797946   -70.50089294571036  -0.0469364403862407   -160.7306971982385  -0.0469364403862281   -160.7306971982385   -23.16218700361656   -69.48689830541244
   480480481.4564565     -26.954683344976    -76.6332919171295 -0.03559753176294814   -167.8656740736531 -0.03559753176295395   -167.8656740736531   -26.96174929951085   -76.99335870936693
   500500501.4754755     -34.207969682611    -79.9047160685551 -0.02938284024464631   -175.0186354464823 -0.02938284024463663   -175.0186354464823   -34.25746848745803   -85.75193227681589
   520520521.4944945   -43.02786277583681     66.3549291487987  -0.0288448114407284    177.8190126331511 -0.02884481144074387    177.8190126331511   -43.44352500445807    98.74324381209482
   540540541.5135136   -29.68521724245139      74.542833219362 -0.03420009114177654    170.6565476319863 -0.03420009114178041    170.6565476319863   -29.70091985460348    84.83603305903436
   560560561.5325326   -24.66321968380345    69.13404154955577 -0.04531283861381657    163.5033407419702 -0.04531283861381463    163.5033407419702   -24.66605000651127    77.00082564454023
   580580581.5515516   -21.57746612402454    62.61971940146351  -0.0617032793161003    156.3682590501747 -0.06170327931612652    156.3682590501747   -21.57719205309341    69.66583342885248
   600600601.5705706   -19.39638009513061    55.79768443244496 -0.08258051629671684    149.2591106827443 -0.08258051629670514    149.2591106827443    -19.3948399917867     62.5012524773517
   620620621.5895896   -17.75347120939397    48.86332056644385  -0.1068960466338034    142.1821776562231  -0.1068960466338103    142.1821776562232   -17.75124886821347    55.43296326810103
   640640641.6086086   -16.47568067368998    41.88909223855175  -0.1334125172331035    135.1418690212359  -0.1334125172331035    135.1418690212359   -16.47301555601893    48.43666484693676
   660660661.6276276   -15.46750959959523    34.90767400736934  -0.1607812885250197    128.1405116170535  -0.1607812885250157    128.1405116170535   -15.46451517182784    41.50210083197477
   680680681.6466466   -14.67085827634271    27.93466821969036  -0.1876223939755273     121.178280499625   -0.187622393975544     121.178280499625   -14.66759241506257    34.62328733685688
   700700701.6656656    -14.0480798677906     20.9766718644158  -0.2126013052297827     114.253258482686  -0.2126013052297847     114.253258482686    -14.0445721338645    27.79517818192134
   720720721.6846846   -13.57385009543001    14.03475416835606  -0.2344982205438592    107.3616057836182  -0.2344982205438354    107.3616057836182   -13.57011359752985    21.01244936849411
   740740741.7037038   -13.23090805342724    7.106237851826585  -0.2522670439936857    100.4978168159458  -0.2522670439936857    100.4978168159458   -13.22694488536861    14.26913929392899
   760760761.7227228   -13.00769240837199   0.1857710177599786  -0.2650825301899846    93.65504105038464  -0.2650825301899826    93.65504105038464   -13.00349598973384     7.55869509666877
   780780781.7417418   -12.89699493162573    -6.73393466939694     -0.2723750551629    86.82544732965191   -0.272375055162911    86.82544732965191   -12.89255056318719   0.8742417487694863
   800800801.7607608   -12.89521327593423   -13.66154923153747  -0.2738530728858441    80.00061466152475   -0.273853072885851    80.00061466152475   -12.89049736674664   -5.791004682589052
   820820821.7797798   -13.00200054642162   -20.60669761327721  -0.2695135564982036    73.17193607166747  -0.2695135564982036    73.17193607166747   -12.99697849688096   -12.44320655041379
   840840841.7987988    -13.2202249802015   -27.57965470697063  -0.2596406959580225    66.33102463604901  -0.2596406959580265    66.33102463604901   -13.21484729999223   -19.08724831397037
   860860861.8178178   -13.55623061989832   -34.59119419642634  -0.2447929581722391    59.47011178250076   -0.244792958172242    59.47011178250076   -13.55042630891946   -25.72590779960701
   880880881.8368368    -14.0204635549848   -41.65267184382687  -0.2257784542150497    52.58242719578951  -0.2257784542150615    52.58242719578951   -14.01412879016555   -32.35874930965449
   900900901.8558558   -14.62862976309586   -48.77650921520105  -0.2036185401534388    45.66254740771557  -0.2036185401534615    45.66254740771557   -14.62160791144342   -38.98051853656836
   920920921.8748748   -15.40373074054718   -55.97742084775196  -0.1794998218490581    38.70669700218251  -0.1794998218490394    38.70669700218251   -15.39577515914955   -45.57857027685584
   940940941.8938938   -16.37969493123074   -63.27513947856411  -0.1547153175614439    31.71298325731142  -0.1547153175614321    31.71298325731142   -16.37039473636235   -52.12826603787222
    960960961.912913   -17.60818236436672   -70.70046674581187   -0.130596467392801    24.68154318546381   -0.130596467392799    24.68154318546381   -17.59680020173839   -58.58371499182822
    980980981.931932   -19.17237540581218   -78.30967540077178  -0.1084388882852023    17.61458260139975  -0.1084388882851828    17.61458260139975   -19.15744715659132   -64.85656609290497
   1001001001.950951   -21.21831248200002   -86.22364737023416 -0.08942607802276734    10.51629111838576 -0.08942607802276928    10.51629111838576   -21.19647679595143   -70.75906738740164
    1021021021.96997    -24.0393241298063   -94.75988792489711 -0.07455640246834665    3.392625323052488 -0.07455640246833595    3.392625323052488   -24.00089675943001   -75.81317868447064
   1041041041.988989   -28.37681419852531   -105.0799245415318 -0.06457934606466538   -3.749035640001322 -0.06457934606466149   -3.749035640001322   -28.27958921859603   -78.32921130716278
   1061061062.008008   -37.27558072992781   -126.7571388089903 -0.05994689418063987   -10.90034377406842 -0.05994689418066414   -10.90034377406842   -36.59418515010114   -65.65812395664193
   1081081082.027027   -37.49579675449918    91.04319447910382 -0.06078490713560279   -18.05251321797004 -0.06078490713560473   -18.05251321797004   -36.77867763551502    44.35286101273258
   1101101102.046046   -28.61641632768313    68.98578695969957 -0.06688750288355953   -25.19688596048586   -0.066887502883543   -25.19688596048586   -28.51213306250696    57.46906962597832
   1121121122.065065   -24.37390889122031    58.63649146615703 -0.07773506758149307   -32.32548470748019 -0.07773506758148334   -32.32548470748019   -24.33108869751199    55.02509184664985
   1141141142.084084   -21.66250489382328    50.09788521492764 -0.09253399403119125   -39.43150701536951 -0.09253399403120489   -39.43150701536951   -21.63699116291102    50.02046015075669
   1161161162.103103   -19.73246543796313    42.18625327233202  -0.1102740750650966   -46.50972280169901  -0.1102740750650781   -46.50972280169902   -19.71404153485389    44.16871127643713
   1181181182.122122   -18.28872377526444     34.5774549430005  -0.1297980212676202   -53.55674981118576  -0.1297980212676456   -53.55674981118576   -18.27379742970496    37.95080421920513
   1201201202.141141   -17.18528643269356    27.14634849169392  -0.1498770050074308   -60.57119587633924  -0.1498770050074416   -60.57119587633924   -17.17226315913073    31.55380156771452
    1221221222.16016   -16.33982383220338    19.83299176252732  -0.1692864123314098   -67.55367016076485  -0.1692864123314078   -67.55367016076485   -16.32787649367718    25.06458970762971
   1241241242.179179   -15.70208359155988     12.6032052589486  -0.1868768949788886   -74.50667597956671  -0.1868768949788857   -74.50667597956671   -15.69072805728258    18.52767841621563
   1261261262.198198   -15.24005215077805    5.434156977775804   -0.201637055552136    -81.4344042705158  -0.2016370555521596    -81.4344042705158   -15.22897279676048    11.96683797682764
   1281281282.217217   -14.93319167381196   -1.691656861030918  -0.2127453746544551   -88.34244940207415  -0.2127453746544492   -88.34244940207415   -14.92215904908845    5.394667461047265
   1301301302.236236   -14.76891621460799   -8.789130037118396  -0.2196100764375923   -95.23746858038375  -0.2196100764375775   -95.23746858038375   -14.75774273797498   -1.182518710689539
   1321321322.255255   -14.74073994546716    -15.8718211032319  -0.2218964069090447   -102.1268038744498  -0.2218964069090515   -102.1268038744498   -14.72925190670811   -7.761805142348863
   1341341342.274274   -14.84741281249624   -22.95256607580644  -0.2195412455991528   -109.0180830693772  -0.2195412455991597   -109.0180830693772   -14.83542828486544   -14.34166901144375
   1361361362.293293   -15.09276123468325   -30.04381331777692  -0.2127551426924168   -115.9188132207227  -0.2127551426924189   -115.9188132207227   -15.08006726812225   -20.92029394968635
   1381381382.312312   -15.48618510519623    -37.1579234885025  -0.2020118790230276   -122.8359796078407  -0.2020118790230414   -122.8359796078407   -15.47250757555286   -27.49382431901236
   1401401402.331331   -16.04396903917147   -44.30766773037208  -0.1880256195145684   -129.7756630541709  -0.1880256195145704   -129.7756630541709   -16.02892496817605   -34.05414081398199
    1421421422.35035   -16.79186265268686   -51.50727721674675  -0.1717158083702824   -136.7426901659596  -0.1717158083702667   -136.7426901659596   -16.77487467422522   -40.58544324647736
   1441441442.369369   -17.76997452788642   -58.77477125269351  -0.1541602540654184   -143.7403334060394  -0.1541602540654292   -143.7403334060394   -17.75010011537246   -47.05807798495543
   1461461462.388388   -19.04243670449086   -66.13737861593584  -0.1365374491766725   -150.7700801811921  -0.1365374491766607   -150.7700801811921   -19.01798556431429   -53.41561128671292
   1481481482.407408   -20.71823500469018   -73.64542354059061  -0.1200600728458297   -157.8314911484688  -0.1200600728458385   -157.8314911484688   -20.68577667145206   -59.54322824283049
   1501501502.426426   -23.00277535275811   -81.41428657971201  -0.1059027529820832   -164.9221665550911  -0.1059027529821046   -164.9221665550911   -22.95396890566657   -65.17412245948745
   1521521522.445446   -26.35713087197091   -89.79229159996461 -0.09512834609793909     -172.03783467897 -0.09512834609794787   -172.0378346789699   -26.26456937762502   -69.52121524476439
   1541541542.464464   -32.23848438397997   -100.5295915345881 -0.08861797081627361   -179.1725679856049 -0.08861797081627165   -179.1725679856049   -31.93208414619878   -68.83487333811121
   1561561562.483484   -50.38765801695301    165.8820666525463 -0.08701052239247134    173.6808789941463 -0.08701052239247914    173.6808789941463   -43.22904394089107  -0.9056195645500769
   1581581582.502502   -32.01152442525778    78.98032247559665 -0.09065716271057872    166.5306292953094 -0.09065716271058943    166.5306292953094    -31.7808676989551    65.87186139372935
   1601601602.521522   -26.08854627956158    68.31606674057628 -0.09959521680771173    159.3851724289248 -0.09959521680772343    159.3851724289248   -26.03311263199232    66.47498142043256
    1621621622.54054   -22.65092791666175    59.95019294824489   -0.113544096841973    152.2528236295837  -0.1135440968419486    152.2528236295837   -22.62673626281067    62.08691110090416
    1641641642.55956   -20.27104801299005    52.18647828519111  -0.1319235948927359    145.1411984678543  -0.1319235948927359    145.1411984678543   -20.25699705986475    56.41414244322166
   1661661662.578578   -18.49322870749404    44.68583808780122  -0.1538925446127506    138.0567455763998  -0.1538925446127359    138.0567455763998    -18.4834860200239    50.23942462783361
   1681681682.597598   -17.11311994314242    37.33778890987939   -0.178403874277121    131.0043722315588  -0.1784038742771407    131.0043722315588   -17.10551831432414    43.82979343729591
   1701701702.616617   -16.02133708051552    30.09625843733492    -0.20427078519177    123.9871855919419  -0.2042707851917621    123.9871855919419   -16.01492350951777    37.30117493082259
   1721721722.635636   -15.15257838247767    22.93824905996025  -0.2302383332084859    117.0063590189154  -0.2302383332084879    117.0063590189154   -15.14689072942854    30.71108828991597
   1741741742.654655   -14.46497314969907    15.85007867302078  -0.2550550130219114    110.0611205543301  -0.2550550130219015    110.0611205543301   -14.45977822290073    24.08981982195661
   1761761762.673674   -13.93042508390297    8.822005962254421  -0.2775398383373928    103.1488511233806  -0.2775398383374068    103.1488511233806   -13.92561014523152    17.45302998698678
   1781781782.692693   -13.52963602266372    1.845976431480851  -0.2966415969721123    96.26527421895011  -0.2966415969721192    96.26527421895011   -13.52515997155291    10.80761395127456
   1801801802.711712   -13.24936387748156   -5.085277569502108  -0.3114881685847515    89.40471662204077  -0.3114881685847535    89.40471662204077   -13.24523485934967    4.154760989674939
   1821821822.730731   -13.08084951432649   -11.97846630590151  -0.3214248207306337    82.56042035052322  -0.3214248207306227    82.56042035052322   -13.07711591305858   -2.508282117708262
    1841841842.74975   -13.01890895907776   -18.83959020764623  -0.3260411344744663    75.72488839594261  -0.3260411344744623    75.72488839594261   -13.01565852165303   -9.187115320295604
   1861861862.768769   -13.06144176497709   -25.67352546696689  -0.3251866305355151    68.89024976737376  -0.3251866305355262    68.89024976737376   -13.05880714553705   -15.88948449560224
   1881881882.787788   -13.20923494205686   -32.48337819862002  -0.3189753168603964    62.04863195961885  -0.3189753168603794    62.04863195961885   -13.20740607536992   -22.62486766475843
   1901901902.806807   -13.46601744129618   -39.26957008627802  -0.3077793497360994    55.19253054502886  -0.3077793497360795    55.19253054502886   -13.46526313084063   -29.40433528231189
   1921921922.825826   -13.83877744200055   -46.02853896467523  -0.2922119072298074    48.31516583459729  -0.2922119072298194    48.31516583459729   -13.83948134711048   -36.24075246466229
   1941941942.844845   -14.33841627317095    -52.7508075609143  -0.2730993349777215    41.41081548297748  -0.2730993349777334    41.41081548297748     -14.341137531844   -43.14949842372385
   1961961962.863864   -14.98090371409075   -59.41791899028578  -0.2514427484700597    34.47510986685179  -0.2514427484700597    34.47510986685179   -14.98648276634107   -50.15007055695127
   1981981982.882883   -15.78926320095508    -65.9971859008278  -0.2283696442939539    27.50527469000418   -0.228369644293943    27.50527469000418   -15.79901646299073   -57.26934417839468
   2002002002.901902   -16.79704813527505   -72.43189617997457  -0.2050767211597432    20.50030344991843  -0.2050767211597629    20.50030344991843   -16.81315166046632   -64.54820583558271
   2022022022.920921   -18.05471257353341   -78.62122156393892  -0.1827660114346296    13.46104215873902  -0.1827660114346415    13.46104215873902    -18.0810287398028   -72.05575811490802
    2042042042.93994   -19.64209881216402   -84.37408652972857  -0.1625774689007016    6.390171000252926  -0.1625774689007084    6.390171000252926   -19.68618084822013   -79.92269371648823
   2062062062.958959   -21.69521111274255   -89.28680063093601  -0.1455221652354395  -0.7079269532534023  -0.1455221652354385  -0.7079269532534022   -21.77402299846697   -88.43161879995648
   2082082082.977978   -24.47023732742236   -92.34631286780225  -0.1324209806469978   -7.827411236898889  -0.1324209806469841   -7.827411236898889   -24.63087854849658   -98.31995003336425
