! TouchStone data converted from IdEM dataset
# Hz S DB R 50
                   1   -178.0466048671051    90.22820114677906 -4.339859330487255e-11 -3.577575231864275e-07 -4.339859330487255e-11 -3.577575231864275e-07   -178.0466048655693    90.22820368675531
   20020021.01901902    -32.0431441048795    82.99502574811156 -0.003591763054936489   -7.160810864662969 -0.003591763054938418   -7.160810864662969   -32.04302331995226    83.13673681643996
   40040041.03803804   -26.09521497305003    75.77235454417068 -0.01245690441808107   -14.31311170454877 -0.01245690441807142   -14.31311170454877   -26.09497663600718    76.05563143926537
   60060061.05705706   -22.69364213917725    68.56720467297485 -0.02611178666799166    -21.4487320435398 -0.02611178666802067    -21.4487320435398   -22.69328844023839    68.99168045754634
   80080081.07607608   -20.36261343851825    61.38675952512616 -0.04378419407515943   -28.56056233020999 -0.04378419407517688   -28.56056233020999   -20.36214639870215    61.95184625385927
   100100101.0950951   -18.63960446501097    54.23674890531981 -0.06446622023032456   -35.64300165329767  -0.0644662202303265   -35.64300165329767   -18.63902612612518    54.94161542062281
   120120121.1141141   -17.31871591604332     47.1211126031633 -0.08698176301449681   -42.69227613881726 -0.08698176301449875   -42.69227613881726   -17.31802844626094    47.96464954164518
   140140141.1331331   -16.29042911623149    40.04181870389567  -0.1100619733009817   -49.70662353950492  -0.1100619733009778   -49.70662353950493   -16.28963490004284    41.02258917329294
   160160161.1521522   -15.48992148341956    32.99882258960066   -0.132422591532603   -56.68634364434708  -0.1324225915326079   -56.68634364434709   -15.48902322018433    34.11499484080326
   180180181.1711712   -14.87620648606598    25.99015474076271  -0.1528379387165129   -63.63372494497214  -0.1528379387165188   -63.63372494497215   -14.87520731318837     27.2394111141689
   200200201.1901902   -14.42243865830769    19.01212056494165  -0.1702075477893842   -70.55286541669591  -0.1702075477893772   -70.55286541669591    -14.4213423161228    20.39153417798673
   220220221.2092092   -14.11097043380586     12.0595934852821  -0.1836127389240889   -77.44940869986233  -0.1836127389240978   -77.44940869986233   -14.10978149559627    13.56545989107515
   240240241.2282282   -13.93069252061008    5.126384217376035  -0.1923616083945842   -84.33021701919095   -0.192361608394597   -84.33021701919095   -13.92941672360637    6.753988608089406
   260260261.2472472   -13.87559665305377   -1.794325893178593  -0.1960217612280925   -91.20300002797276  -0.1960217612281014   -91.20300002797276   -13.87424138860699 -0.05103617855001226
   280280281.2662663   -13.94407755852346    -8.70949169139581  -0.1944406229462473   -98.07591572381469  -0.1944406229462542   -98.07591572381469    -13.9426526201023    -6.85837777540705
   300300301.2852853   -14.13876488892682   -15.62564371848322  -0.1877533522674872   -104.9571568197847  -0.1877533522674892   -104.9571568197847   -14.13728365247774   -13.67706907307502
   320320321.3043043    -14.4668367620055   -22.54823410947227   -0.176378343044912   -111.8545343233119  -0.1763783430448963   -111.8545343233119   -14.46531812231456    -20.5161197641724
   340340341.3233233   -14.94090321868793   -29.48082762572034  -0.1610001840870583   -118.7750700420336   -0.161000184087072   -118.7750700420336   -14.93937491543716   -27.38431774511209
   360360361.3423423    -15.5807292879633   -36.42400251165819   -0.142539887885825   -125.7246113540463   -0.142539887885827   -125.7246113540463   -15.57923394551087   -34.29021551318141
   380380381.3613614    -16.4163996336693     -43.373651696316  -0.1221123454078999   -132.7074844799388  -0.1221123454079107   -132.7074844799388   -16.41500650922418   -41.24248759425084
   400400401.3803804   -17.49425900619156   -50.31792243865495   -0.100971427119954   -139.7262058898953  -0.1009714271199706   -139.7262058898953   -17.49308892755026   -48.25108618411042
   420420421.3993994   -18.88881285462674   -57.23070986126798 -0.08044398775194057   -146.7812742201689 -0.08044398775195225   -146.7812742201689   -18.88809760873837    -55.3303165999632
   440440441.4184184   -20.72919160732738   -64.05508717495877 -0.06185521610582945    -153.871065783404 -0.06185521610582556    -153.871065783404     -20.729439789682   -62.50732251277714
   460460461.4374374   -23.26811496028795   -70.65051698082438 -0.04644916494862209   -160.9918541029086 -0.04644916494863081   -160.9918541029086   -23.27069953980211   -69.84968575045777
   480480481.4564565   -27.11461235805067   -76.55601450562783 -0.03530965176980871   -168.1379669783493  -0.0353096517698242   -168.1379669783493   -27.12489546534484    -77.5896716011881
   500500501.4754755   -34.55612466911729   -78.79290395906008  -0.0292877123495978   -175.3020833518763 -0.02928771234958329   -175.3020833518763   -34.62655180381644   -87.28826867697074
   520520521.4944945    -41.9341305801681    64.63806019437668  -0.0289420842143541    177.5243421977108 -0.02894208421436765    177.5243421977108   -42.34040677835325    101.2725646811416
   540540541.5135136   -29.45126162857237    73.22646996594844 -0.03449856191246401    170.3505548801812 -0.03449856191245626    170.3505548801812   -29.46931220570531    85.60753171061594
   560560561.5325326   -24.52701690480566    68.06391990470962 -0.04583246071170277    163.1859158968867 -0.04583246071169114    163.1859158968867   -24.53009889949836    77.45685301095179
   580580581.5515516   -21.47569302448927    61.64323386800148 -0.06247605303637843    156.0393085957649 -0.06247605303636192    156.0393085957649   -21.47513684039227    69.99351709169193
   600600601.5705706   -19.31031040201961    54.86243062739447 -0.08365011806416681    148.9185851141224 -0.08365011806415705    148.9185851141224   -19.30828105577341    62.75951589206387
   620620621.5895896   -17.67490072132036    47.94532943091286  -0.1083161869257131     141.830098119645  -0.1083161869257346     141.830098119645   -17.67208632435468    55.64793154688722
   640640641.6086086    -16.4001431552475     40.9754505797603  -0.1352441435333221    134.7783504561832  -0.1352441435333202    134.7783504561832   -16.39682517178948    48.62233550246759
   660660661.6276276   -15.39217186537908    33.99068152791692  -0.1630888448710094     127.765780491756  -0.1630888448709996     127.765780491756   -15.38848330667968    41.66700843004992
   680680681.6466466   -14.59368297721842    27.00942619027402  -0.1904694035786431    120.7926858361789  -0.1904694035786352    120.7926858361789   -14.58969174069694     34.7731923588573
   700700701.6656656   -13.96742955407825    20.03993489718963  -0.2160455584272814    113.8572754657313  -0.2160455584272725    113.8572754657313   -13.96317069063567    27.93432128121716
   720720721.6846846   -13.48827083214374     13.0843181720772  -0.2385868369037339    106.9558317380926   -0.238586836903723    106.9558317380926   -13.48376059004199    21.14419712289329
   740740741.7037038   -13.13899302184699     6.14057911430818  -0.2570316489752348    100.0829596774326  -0.2570316489752447    100.0829596774326   -13.13423532853684    14.39633912382471
   760760761.7227228   -12.90798147729567   -0.796189209353895  -0.2705347574690791    93.23190064095586   -0.270534757469099    93.23190064095586   -12.90297081970746    7.683877414300253
   780780781.7417418   -12.78788734519824    -7.73300083751452  -0.2785025662632274    86.39488983808772  -0.2785025662632503    86.39488983808772   -12.78260962623597   0.9997351533463397
   800800801.7607608   -12.77487866020684   -14.67838924165068  -0.2806162816823775    79.56354077800718  -0.2806162816823705    79.56354077800718   -12.76931061475804   -5.663011644684108
   820820821.7797798   -12.86827533248148   -21.64196558455299  -0.2768432574231778    72.72924331906952  -0.2768432574231688    72.72924331906952   -12.86238256028959   -12.31063955391741
   840840841.7987988   -13.07047908859093   -28.63410951692218  -0.2674368159185769    65.88356464139196  -0.2674368159185987    65.88356464139196   -13.06421234430255   -18.94814912729052
   860860861.8178178   -13.38718243776523   -35.66582022629006  -0.2529246731090982    59.01864359264736  -0.2529246731090943    59.01864359264736    -13.3804712908127   -25.57846307675716
   880880881.8368368   -13.82790714571447   -42.74880452974935  -0.2340859179124513    52.12756827985742  -0.2340859179124424    52.12756827985741   -13.82064921621474   -32.20135536926391
   900900901.8558558    -14.4070101289387   -49.89596161396903  -0.2119164491213864    45.20472468090114  -0.2119164491213962    45.20472468090114    -14.3990522914101    -38.8119106569907
   920920921.8748748   -15.14544479637929   -57.12259112294176  -0.1875829699736524    38.24610097337278  -0.1875829699736455    38.24610097337278   -15.13654874497579   -45.39809170490282
   940940941.8938938   -16.07386732499199   -64.44902991839508   -0.162366166243644    31.24952910832545  -0.1623661662436391    31.24952910832546   -16.06364225603719   -51.93647657821667
    960960961.912913   -17.23835470400947    -71.9063802206377  -0.1375945690189151    24.21484304395893  -0.1375945690189033    24.21484304395894   -17.22611409268284   -58.38390809597641
    980980981.931932   -18.71170363008459   -79.54973855097052  -0.1145717656143352    17.14393326077142  -0.1145717656143254    17.14393326077142   -18.69612445212091   -64.65900726699768
   1001001001.950951   -20.61818299904346   -87.49259035497592 -0.09450090951492406    10.04068080406185 -0.09450090951492114    10.04068080406185   -20.59635994181122   -70.59478090073669
    1021021021.96997   -23.19660649673666   -96.01503838543154 -0.07841163966413831    2.910761719839684 -0.07841163966413343    2.910761719839684   -23.16075830554598   -75.79041384166386
   1041041041.988989   -27.00412966617368   -106.0314717788062 -0.06709524755016859   -4.238675926927177 -0.06709524755015984   -4.238675926927175   -26.92489474633554    -78.9789008880861
   1061061062.008008   -33.92598774908685   -122.9484338104892 -0.06105394879739219   -11.39944659060573 -0.06105394879741259   -11.39944659060573   -33.56639577141284   -73.10218206866035
   1081081082.027027   -41.59509185104179    113.3944729482307 -0.06046926180285644   -18.56284374971346 -0.06046926180285547   -18.56284374971346    -39.8332515149194    20.67225167256099
   1101101102.046046   -30.22057994866643    71.12041160337789   -0.065192798034579   -25.72019774521096 -0.06519279803455957   -25.72019774521096   -30.05965477413822    53.73243584914616
   1121121122.065065   -25.32211045047296    58.98270228834128 -0.07476046977187331   -32.86342840126753 -0.07476046977184997   -32.86342840126753   -25.26535375994878    53.41984425803518
   1141141142.084084   -22.33026383302341    49.87684466302497 -0.08842862916717523   -39.98554646287745 -0.08842862916720837   -39.98554646287745   -22.29861432037969    49.05071226483818
   1161161162.103103   -20.24393304472924      41.690532714908  -0.1052284299006133   -47.08106483654782  -0.1052284299006153   -47.08106483654782   -20.22188917374658    43.47730718983569
   1181181182.122122   -18.69969461213654    33.91665324258515  -0.1240331346471798   -54.14629233437359  -0.1240331346471955   -54.14629233437359   -18.68223298727053    37.40560744879495
   1201201202.141141   -17.52552938933155    26.37248727241532  -0.1436323844943254   -61.17949655527335  -0.1436323844943244   -61.17949655527335   -17.51053150795543    31.09300540483233
    1221221222.16016   -16.62705141040448    18.97491230012469  -0.1628075919031076   -68.18093598895736  -0.1628075919031144   -68.18093598895737   -16.61345988662644    24.65473054065084
   1241241242.179179   -15.94764265366482    11.67891021064974  -0.1804034282171389   -75.15277226116098  -0.1804034282171173   -75.15277226116098   -15.93485989548921    18.14874025328551
   1261261262.198198   -15.45158938197012    4.456074840532024  -0.1953915624857596   -82.09888050515828  -0.1953915624857556   -82.09888050515828   -15.43924022145541    11.60593397278205
   1281281282.217217   -15.11603099770228   -2.714133498019904  -0.2069240747414994     -89.024579042613  -0.2069240747415093     -89.024579042613   -15.10385466993371    5.042972298917949
   1301301302.236236   -14.92682233073658   -9.848297007122383  -0.2143750799205358   -95.93629959672397  -0.2143750799205329   -95.93629959672397   -14.91461674312435    -1.53144208831288
   1321321322.255255    -14.8763614253009   -16.96087859956089  -0.2173699213557945   -102.8412172976944  -0.2173699213558024   -102.8412172976944   -14.86395004725529   -8.113031837662467
   1341341342.274274   -14.96254305389518   -24.06510582305201  -0.2158017879253296   -109.7468570182748  -0.2158017879253236   -109.7468570182748   -14.94975105314323   -14.69963353672783
   1361361362.293293   -15.18848474330724   -31.17341723678557  -0.2098358209183087   -116.6606901640218  -0.2098358209183254   -116.6606901640218   -15.17511673996738   -21.28939004220134
   1381381382.312312   -15.56293937828996   -38.29776045238187  -0.1999008053794936   -123.5897346803204  -0.1999008053794915   -123.5897346803204   -15.54875230075546   -27.87901157562719
   1401401402.331331    -16.1015271198794   -45.44996959809503  -0.1866685154065614   -130.5401710738466  -0.1866685154065762   -130.5401710738466   -16.08618922864892   -34.46169325321645
    1421421422.35035   -16.82921466830423   -52.64251173689247   -0.171020839162946   -137.5169886178101  -0.1710208391629381   -137.5169886178101   -16.81223377903539   -41.02405175112268
   1441441442.369369   -17.78504066363703   -59.89014987108622  -0.1540050674729986   -144.5236781567492  -0.1540050674730035   -144.5236781567492   -17.76562276736552   -47.54073779502771
   1461461462.388388   -19.03143656210536   -67.21384524471515  -0.1367782722087563   -151.5619902277789  -0.1367782722087602   -151.5619902277789   -19.00817234073739   -53.96333441150036
   1481481482.407408   -20.67422841804932    -74.6507519195534  -0.1205425477879216   -158.6317784853519  -0.1205425477879089   -158.6317784853519   -20.64428896722985   -60.19352606546137
   1501501502.426426   -22.91178755734044   -82.28417576025686  -0.1064739778377767   -165.7309474824609  -0.1064739778377747   -165.7309474824609   -22.86839146152556   -66.00450821076682
   1521521522.445446   -26.18500728989505   -90.36138672635037 -0.09564936189521457   -172.8555197370783 -0.09564936189519604   -172.8555197370783   -26.10635725446949   -70.73654505202562
   1541541542.464464   -31.85920375982264   -100.0828972917494 -0.08897575386815768   -179.9998292403162 -0.08897575386816839   -179.9998292403162   -31.61602482430416   -71.33367044587746
   1561561562.483484   -51.91051467429899   -166.5294738375727 -0.08712844531792802    172.8431624782498  -0.0871284453179465    172.8431624782498   -44.11056656920466   -12.79161551731362
   1581581582.502502   -32.50603441000868    76.07206440527723 -0.09050292539045543     165.681444563704 -0.09050292539045349     165.681444563704   -32.28905000110304    66.63390465448133
   1601601602.521522   -26.32245734931735    65.99317964188519 -0.09918543442260939    158.5234588397848 -0.09918543442261624    158.5234588397848   -26.27265598502564    66.98174399720966
    1621621622.54054   -22.79324042208954    57.84790724047166  -0.1129450493304982    151.3775649925155  -0.1129450493305021    151.3775649925155   -22.77117325704337    62.40076821086861
    1641641642.55956    -20.3622320886918    50.19226247989951  -0.1312480397067969     144.251513230323  -0.1312480397068155     144.251513230323   -20.34889794528286    56.60611726426508
   1661661662.578578   -18.54902254201866    42.75182747194611  -0.1532929007074164    137.1519675205876  -0.1532929007074164    137.1519675205876   -18.53933636893472    50.34571282195678
   1681681682.597598   -17.14113915396339    35.43978976911234  -0.1780624272726019    130.0841154681537  -0.1780624272725989    130.0841154681537   -17.13325613488828    43.87008441319587
   1701701702.616617   -16.02570548918422    28.22094402333716  -0.2043877883789877    123.0513896133832  -0.2043877883789877    123.0513896133832   -16.01883477586358    37.28699876227793
   1721721722.635636   -15.13562395762339     21.0781414419773  -0.2310189652645247    116.0553117768164  -0.2310189652645326    116.0553117768164   -15.12939593410383    30.64959173904442
   1741741742.654655   -14.42795613504055    14.00125921946232  -0.2566961128294422    109.0954595476607  -0.2566961128294502    109.0954595476607   -14.42219685220082     23.9856024747511
   1761761762.673674   -13.87387976418276    6.982948398413718  -0.2802172064272578    102.1695440376516  -0.2802172064272667    102.1695440376516   -13.86851900085301    17.30908177905849
   1781781782.692693   -13.45353453073326  0.01689951971133365  -0.3004984786508422    95.27358161839975  -0.3004984786508321    95.27358161839975   -13.44856540336921     10.6257938320061
   1801801802.711712   -13.15318669901619   -6.902792095397797  -0.3166253598169515    88.40213959835073  -0.3166253598169475    88.40213959835073   -13.14864806915446    3.936017521549369
   1821821822.730731    -12.9635992348514    -13.7817066409158  -0.3278926964767159    81.54863601518987  -0.3278926964767329    81.54863601518987   -12.95956982012075   -2.763851116816171
    1841841842.74975   -12.87908205059004   -20.62485335044107  -0.3338338068805571    74.70567586523622  -0.3338338068805662     74.7056758652362   -12.87568192582079   -9.480316598601066
   1861861862.768769   -12.89696121598523   -27.43618769961943  -0.3342384022893577    67.86540902841705  -0.3342384022893548    67.86540902841705   -12.89435950630278   -16.22217586099255
   1881881882.787788   -13.01733753757833   -34.21790712989543  -0.3291595918448555    61.01989789062512  -0.3291595918448526    61.01989789062512   -13.01576704475517   -23.00019326997909
   1901901902.806807   -13.24307969558581   -40.96947938106194   -0.318910178607717    54.16148450490198    -0.31891017860772    54.16148450490198   -13.24286109078802   -29.82705922195002
   1921921922.825826   -13.58004992753227   -47.68628300143681  -0.3040483541202283    47.28314768225012  -0.3040483541202412    47.28314768225012   -13.58163087418533   -36.71771373229016
   1941941942.844845   -14.03761170929999   -54.35761713417778  -0.2853528256739675    40.37883960386701  -0.2853528256739505    40.37883960386701   -14.04163115663034   -43.69022639710272
   1961961962.863864   -14.62953844825982   -60.96360286746996  -0.2637874748303439    33.44378965981614  -0.2637874748303409    33.44378965981615   -14.63693605887307    -50.7676195981491
   1981981982.882883   -15.37555956507654   -67.47000482817765  -0.2404559362106505    26.47476080552466  -0.2404559362106426    26.47476080552465   -15.38777124478291   -57.98142211392333
   2002002002.901902   -16.30400544358661   -73.81887932936662  -0.2165470514447536    19.47024160721584  -0.2165470514447418    19.47024160721584   -16.32333516763219   -65.37864568378463
   2022022022.920921   -17.45648378936674   -79.91017311825033  -0.1932729855589069    12.43055630845988  -0.1932729855589256    12.43055630845988   -17.48686882713984   -73.03613606819862
    2042042042.93994   -18.89658239965966   -85.56173276798397  -0.1718028090620363     5.35787668041791  -0.1718028090620363     5.35787668041791   -18.94533736594556   -81.09257216971083
   2062062062.958959   -20.72715096570359   -90.41104187992637  -0.1531953872969654   -1.743876140259451  -0.1531953872969634   -1.743876140259451    -20.8095215444289   -89.82884899259558
   2082082082.977978   -23.12692160199766   -93.63139751777506  -0.1383362563813841   -8.869243958314151  -0.1383362563813988   -8.869243958314149   -23.28044241443968   -99.90810025317089
