! TouchStone data converted from IdEM dataset
# Hz S DB R 50
                   1   -178.1991461851216    90.23427605833881 -4.377660967176334e-11 -3.590065296025845e-07 -4.377660967176334e-11 -3.590065296025845e-07   -178.1991461867211    90.23427347336255
   20020021.01901902   -32.19558118749846    82.95291419702043 -0.00350569766831161   -7.185868837476462 -0.003505697668300997   -7.185868837476463   -32.19541586346138    83.14079926624159
   40040041.03803804    -26.2472355122533     75.6818273428389 -0.01210398361575751   -14.36354462446031 -0.01210398361574592   -14.36354462446031   -26.24690847574888    76.05729091900922
   60060061.05705706   -22.84497143393138    68.42779914572569 -0.02533015294209521   -21.52515173488682 -0.02533015294208844   -21.52515173488682   -22.84448543430996    68.99014331487433
   80080081.07607608   -20.51301356586249    61.19785331185084 -0.04244163298699515   -28.66382903467997 -0.04244163298700386   -28.66382903467998   -20.51237141880991    61.94597996816005
   100100101.0950951   -18.78888535805764    53.99763187721948 -0.06246825751258948   -35.77416086998697 -0.06246825751261377   -35.77416086998697   -18.78809016743981    54.93000431677496
   120120121.1141141   -17.46674409926032    46.83107221395076 -0.08427660907734902   -42.85248523255495 -0.08427660907734025   -42.85248523255495   -17.46579940158974    47.94565668203361
   140140141.1331331   -16.43713404080676    39.70023307416841  -0.1066421509582935   -49.89707501738103  -0.1066421509582895   -49.89707501738103   -16.43604394744547    40.99441703131127
   160160161.1521522   -15.63529996583381    32.60525630477111  -0.1283234214812949    -56.9081914857826   -0.128323421481292    -56.9081914857826   -15.63406933297315     34.0757371713633
   180180181.1711712   -15.02032617140743    25.54445407195386   -0.148133313950345   -63.88801920643479  -0.1481333139503402   -63.88801920643479   -15.01896082166855    27.18708895600766
   200200201.1901902   -14.56544180548246    18.51450720004394  -0.1650035838894745   -70.84049885284401  -0.1650035838894637   -70.84049885284401   -14.56394882982146    20.32410950236233
   220220221.2092092   -14.25307971580852    11.51075874599596  -0.1780399482090471   -77.77107765364809  -0.1780399482090314   -77.77107765364809    -14.2514678970243     13.4808205334437
   240240241.2282282   -14.07222105227108    4.527589251895916  -0.1865662351001113   -84.68639754715147  -0.1865662351001113   -84.68639754715147   -14.07050147436969    6.649897244377805
   260260261.2472472    -14.0169652695088   -2.441133815262121  -0.1901568616862653   -91.59393924260941  -0.1901568616862525   -91.59393924260941   -14.01515221763439  -0.1770387966199099
   280280281.2662663   -14.08584375352267   -9.401529773186304  -0.1886574066065358   -98.50163764940085  -0.1886574066065456   -98.50163764940085   -14.08395608201059   -7.009130399776256
   300300301.2852853   -14.28167029660496   -16.35908271945696  -0.1821932361960509   -105.4174815958471  -0.1821932361960499   -105.4174815958471    -14.2797335789982   -13.85603346961397
   320320321.3043043      -14.61188463813     -23.317877011931  -0.1711661239167464   -112.3491092395923  -0.1711661239167523   -112.3491092395923   -14.60993468056311   -20.72775423017395
   340340341.3233233   -15.08948618744545   -30.27958943852836  -0.1562386968495793   -119.3034105350359  -0.1562386968495606   -119.3034105350359   -15.08757504334263   -27.63466175622516
   360360361.3423423    -15.7348455557932   -37.24202121159016    -0.13830648924686   -126.2861496489777  -0.1383064892468492   -126.2861496489777    -15.7330524206649    -34.5878432517219
   380380381.3613614   -16.57903505195388   -44.19667851365992  -0.1184575164401297   -133.3016229832316   -0.118457516440159   -133.3016229832316   -16.57748742826078   -41.60015885801923
   400400401.3803804   -17.67010594031074   -51.12419358693803 -0.09791971302024596   -140.3523717550997 -0.09791971302026842   -140.3523717550997   -17.66902458716553   -48.68884102543765
   420420421.3993994   -19.08574741944533   -57.98426274102876 -0.07799736688674186   -147.4389708303859  -0.0779973668867438   -147.4389708303859   -19.08555374881675   -55.88191424261268
   440440441.4184184   -20.96171263468786   -64.68941662882254 -0.05999880630763549   -154.5599163949717 -0.05999880630762577   -154.5599163949717    -20.9633309845217    -63.2356813808426
   460460461.4374374   -23.56697646198094   -71.01946169722315 -0.04515893902084671   -161.7116327984307 -0.04515893902085447   -161.7116327984307   -23.57292276800487   -70.89249577615806
   480480481.4564565   -27.56335701704462   -76.22304651761462 -0.03456157183293797   -168.8886125894152   -0.034561571832937   -168.8886125894152   -27.58374744064675   -79.35118859959074
   500500501.4754755   -35.54405169969935   -74.95308926071766 -0.02906744767400259   -176.0836932525121 -0.02906744767399678   -176.0836932525121   -35.69030821797304   -92.28618220008433
   520520521.4944945   -39.46517098667974    60.96557357396696 -0.02925430332632248    176.7115395943715 -0.02925430332632441    176.7115395943715   -39.81849410899104    105.8581571140952
   540540541.5135136   -28.82570645593757    69.78152082834966 -0.03537473656493494    169.5062476962083 -0.03537473656493881    169.5062476962083   -28.84831465448471    87.53296861291567
   560560561.5325326   -24.15449544095785    65.18388867514541 -0.04733621535846406    162.3097727458303 -0.04733621535846018    162.3097727458303   -24.15792487802427    78.63823739212425
   580580581.5515516   -21.19443061248671    58.99263328791248 -0.06470533393689124    155.1310531593516 -0.06470533393688443    155.1310531593516   -21.19301264895282    70.85097944758354
   600600601.5705706   -19.07095402100242    52.31552439382047 -0.08673580087648913     147.978074292264 -0.08673580087649789     147.978074292264   -19.06757860066732    63.43546047679217
   620620621.5895896   -17.45555807647224    45.44269262824506  -0.1124171254561397    140.8573964195117  -0.1124171254561465    140.8573964195117   -17.45115844987555    56.20742299657751
   640640641.6086086   -16.18883135067925    38.48465737601316  -0.1405390143895808    133.7737939656047  -0.1405390143895769    133.7737939656047   -16.18379160913104    49.10072478552295
   660660661.6276276   -15.18128079538979    31.49240845726404  -0.1697654070695966    126.7300251793702  -0.1697654070696025    126.7300251793702   -15.17578375986663    42.08594925104581
   680680681.6466466   -14.37775282402868    24.49155638894802  -0.1987119411307752     119.726736663553  -0.1987119411307673     119.726736663553   -14.37189357939477    35.14726045863255
   700700701.6656656   -13.74209484485663    17.49470378518235  -0.2260213113978633    112.7624945095172  -0.2260213113978593    112.7624945095172   -13.73592497704411    28.27414492805423
   720720721.6846846   -13.24968348359306    10.50677904651299  -0.2504321806349192    105.8339249228218   -0.250432180634952    105.8339249228218   -13.24323049469169    21.45807643521876
   740740741.7037038   -12.88346119612955    3.527698876392865   -0.270838692411144    98.93594267757273   -0.270838692411144    98.93594267757273   -12.87673767062025     14.6911294463476
   760760761.7227228   -12.63170784729679   -3.446111686636567  -0.2863389397372205    92.06204503681701  -0.2863389397372026    92.06204503681701   -12.62471583983159     7.96547762136383
   780780781.7417418   -12.48674697095951   -10.42074211474162  -0.2962717662459001    85.20465082925719  -0.2962717662458951    85.20465082925719   -12.47947985407484    1.273343634026338
   800800801.7607608   -12.44419893948933   -17.40410992795948  -0.3002419343255899    78.35546786030221  -0.3002419343255899    78.35546786030221   -12.43664163376208    -5.39279206735041
   820820821.7797798    -12.5025869714146   -24.40545847191372   -0.298133993571678     71.5058755255548    -0.29813399357169     71.5058755255548   -12.49471484412495   -12.03980866207033
   840840841.7987988   -12.66320358332814   -31.43500332868248  -0.2901151955287723    64.64731242477269  -0.2901151955287553    64.64731242477269    -12.6549798870941   -18.67341575205621
   860860861.8178178   -12.93020815417629   -38.50373711017597  -0.2766276380259448    57.77166032473295  -0.2766276380259409    57.77166032473293   -12.92157945696991   -25.29746217161929
   880880881.8368368    -13.3109778699235   -45.62344732622086  -0.2583696130476977    50.87161572286607  -0.2583696130477097    50.87161572286607    -13.3018663006899   -31.91301972025655
   900900901.8558558   -13.81679447184587   -52.80706837467253  -0.2362660065899918    43.94103859275334    -0.23626600658997    43.94103859275334   -13.80708444500513    -38.5171025929493
   920920921.8748748   -14.46404314256201   -60.06961172751816  -0.2114276764721384    36.97526505149438  -0.2114276764721414    36.97526505149438   -14.45355781431098   -45.10073487987787
   940940941.8938938    -15.2762750663183    -67.4301779572744  -0.1851001067952975    29.97136740317175  -0.1851001067952955    29.97136740317175   -15.26473231561475   -51.64575514626964
    960960961.912913   -16.28785180162048   -74.91616194147053  -0.1586023506376924    22.92834229172873  -0.1586023506376963    22.92834229172873   -16.27477598251188    -58.1189771095739
    980980981.931932    -17.5507376743387   -82.57235043930267  -0.1332583001241531    15.84720672699097  -0.1332583001241335    15.84720672699097   -17.53526589105717   -64.46030246036639
   1001001001.950951   -19.14820229194871   -90.48234575076491  -0.1103235498545583     8.73098368247091  -0.1103235498545603    8.730983682470912   -19.12860450792787   -70.55535982088806
    1021021021.96997   -21.22575710127654   -98.82652702449506 -0.09091233714085108    1.584564611303238 -0.09091233714085496    1.584564611303238   -21.19802910766369   -76.16203343647257
   1041041041.988989   -24.07352309495352   -108.0768093529264 -0.07592997304739922   -5.585554300681753 -0.07592997304741188   -5.585554300681752   -24.02606972729816   -80.66521860081166
   1061061062.008008   -28.41052916447335   -119.9412551497108 -0.06601653355682194   -12.77165287818847 -0.06601653355682388   -12.77165287818847   -28.29312771702349   -81.91065048694404
   1081081082.027027   -36.84866258023079    -147.519073189282  -0.0615071442818503   -19.96526184799048  -0.0615071442818639   -19.96526184799047   -36.11408640561152   -65.00174789285153
   1101101102.046046   -36.72959023362267    88.13033878023018 -0.06241290408184895   -27.15769683519917 -0.06241290408185673   -27.15769683519917   -36.00070130946704    31.34309879421429
   1121121122.065065    -28.5844741488859    61.27668914040991 -0.06842449463457058   -34.34060818181504 -0.06842449463456668   -34.34060818181503   -28.45580569157598    47.39412274321651
   1141141142.084084   -24.46029381505751    49.50810958340858 -0.07893814408242465   -41.50650088859829 -0.07893814408243632   -41.50650088859829   -24.40432529913824    46.06598621347302
   1161161162.103103   -21.80773316364921    40.30469265024314 -0.09310128869394466   -48.64918295045265 -0.09310128869394466   -48.64918295045265   -21.77307652872891    41.56965343688557
   1181181182.122122    -19.9211560533221    31.99761640422932  -0.1098734261172506   -55.76410978583773  -0.1098734261172408   -55.76410978583773   -19.89546789597944    35.99675486116638
   1201201202.141141   -18.51537544830451    24.11944897029303  -0.1280965642571606   -62.84860524815026  -0.1280965642571547   -62.84860524815026   -18.49424557031519    29.94677986086225
    1221221222.16016   -17.44795823954685    16.48807544740583  -0.1465694299261172   -69.90195323496357  -0.1465694299261359   -69.90195323496357   -17.42941628819889    23.65438522713473
   1241241242.179179   -16.63838858288956    9.016514647162557  -0.1641201046369056   -76.92536579999989  -0.1641201046369262   -76.92536579999989   -16.62141521957988    17.22882105700085
   1261261262.198198   -16.03766470846981    1.656250402817488  -0.1796727595912907    -83.9218423391453  -0.1796727595913065    -83.9218423391453   -16.02167258076163    10.72623672609488
   1281281282.217217   -15.61487535578495    -5.62363922085147  -0.1923053778745559   -90.89593929865732  -0.1923053778745805   -90.89593929865732    -15.5994946597281    4.176877816859731
   1301301302.236236   -15.35063333552218   -12.84527112771777   -0.201296519368875   -97.85347128526493  -0.2012965193688671   -97.85347128526493   -15.33561113759896    -2.40291722013147
   1321321322.255255   -15.23368853540474   -20.02596990725344  -0.2061601239695199   -104.8011633926829  -0.2061601239695376   -104.8011633926829   -15.21883594575137    -9.00467348912176
   1341341342.274274   -15.25921729392662   -27.18016098051347  -0.2066679799383568   -111.7462721908033   -0.206667979938346   -111.7462721908033   -15.24437817472313   -15.62431951909772
   1361361362.293293   -15.42814784810331   -34.32023911963557  -0.2028598140106844   -118.6961902899736  -0.2028598140106706   -118.6961902899736   -15.41317691409916   -22.25990576392191
   1381381382.312312    -15.7472942715991   -41.45691116959375  -0.1950410619821469   -125.6580475766854  -0.1950410619821548   -125.6580475766854   -15.73203760630985   -28.90981917357642
   1401401402.331331   -16.23034455560865    -48.5992612387914   -0.183768367584505   -132.6383216456505  -0.1837683675845237   -132.6383216456505   -16.21461658805599   -35.57105830666858
    1421421422.35035    -16.9000496419498   -55.75467372051319  -0.1698228653087482   -139.6424707588716  -0.1698228653087786   -139.6424707588716   -16.88359822012013   -42.23711777972489
   1441441442.369369   -17.79248513616788   -62.92869662704034  -0.1541714568660031   -146.6746045786596  -0.1541714568660099   -146.6746045786596   -17.77492783628156   -48.89470571313544
   1461461462.388388   -18.96544822821021    -70.1249034411546  -0.1379166926982806   -153.7372103054672  -0.1379166926982854   -153.7372103054672   -18.94613778418152   -55.51746984453548
   1481481482.407408   -20.51626179837088   -77.34480412000798  -0.1222365716519813   -160.8309537443645  -0.1222365716519989   -160.8309537443645   -20.49395500142882   -62.05151544512881
   1501501502.426426   -22.62459672630246   -84.58787017997167  -0.1083165531375944   -167.9545750834849  -0.1083165531375856   -167.9545750834849   -22.59646132952486   -68.37450956051063
   1521521522.445446   -25.67854619862349   -91.85184720209499 -0.09727722627736096   -175.1048966932856 -0.09727722627738535   -175.1048966932856   -25.63611833773508   -74.14419130367249
   1541541542.464464   -30.80887719180259   -99.13451127387889 -0.09010219856401025    177.7230456988099 -0.09010219856399465    177.7230456988099   -30.70852357444329   -77.89707632687281
   1561561562.483484    -46.5927329384937   -106.4857849388563 -0.08757158770484628     170.535746593193 -0.08757158770483753     170.535746593193   -44.38592226310384   -54.18226425057748
   1581581582.502502    -33.9773804666826    66.32448468194234 -0.09020675468650668    163.3408593477598 -0.09020675468651741    163.3408593477598   -33.84732816749798    70.12993295009613
   1601601602.521522   -26.96330354107523    59.03556852236543 -0.09823140861134441    156.1467331455539 -0.09823140861134441    156.1467331455539   -26.93649276234341    68.89816906582118
    1621621622.54054    -23.1621160639921    51.77054982243533  -0.1115529013145081    148.9618930460877  -0.1115529013145179    148.9618930460877   -23.14839064432426    63.53074526308406
    1641641642.55956   -20.58318683500179     44.5324014095636  -0.1297655620621033    141.7945053555611  -0.1297655620621121    141.7945053555611    -20.5731113290717    57.28160410757938
   1661661662.578578   -18.66921569895708     37.3281542723132  -0.1521756236178622    134.6518723849906    -0.15217562361787    134.6518723849906   -18.66058807550406    50.71331571253045
   1681681682.597598   -17.18324746874623    30.16438807964461  -0.1778450774758359    127.5399964094068  -0.1778450774758468    127.5399964094068   -17.17537034210457    44.00490005714958
   1701701702.616617   -16.00207523776076    23.04643965115202  -0.2056500618120629    120.4632432651236  -0.2056500618120659    120.4632432651236   -15.99470572077112    37.23161227000556
   1721721722.635636   -15.05337133628899     15.9781139130057  -0.2343483941190581    113.4241235822073  -0.2343483941190522    113.4241235822073    -15.0464402750357    30.42989610573967
   1741741742.654655   -14.29114197273458    8.961608333266508  -0.2626506857985879    106.4231966498409  -0.2626506857986037    106.4231966498409   -14.28466119305237    23.61807292029043
   1761761762.673674   -13.68453364692474    1.997594293418792   -0.289290009057557    99.45909060356409    -0.28929000905755    99.45909060356409    -13.6785618222059    16.80439496686336
   1781781782.692693   -13.21215719255191   -4.914566696814151  -0.3130860932701449    92.52862448933834  -0.3130860932701408    92.52862448933834   -13.20678767415712    9.990685342537477
   1801801802.711712   -12.85898518757939   -11.77648582177021  -0.3330012310351084     85.6270133247485  -0.3330012310350974     85.6270133247485   -12.85434372284325    3.174199354756813
   1821821822.730731   -12.61456607339804   -18.59029633680193  -0.3481862256030107    78.74813621572008  -0.3481862256030047    78.74813621572008   -12.61081421088355   -3.651324908397959
    1841841842.74975   -12.47196652963394    -25.3580875139088  -0.3580156385569608    71.88484901017254  -0.3580156385569588    71.88484901017254   -12.46930954417514   -10.49504316012555
   1861861862.768769   -12.42714815340774   -32.08120671478945  -0.3621122165901683    65.02932576109576  -0.3621122165901683    65.02932576109576   -12.42584785650703   -17.36865962922701
   1881881882.787788   -12.47862689212131   -38.75939148551856  -0.3603606863618962    58.17341635614674  -0.3603606863618932    58.17341635614675   -12.47902088726634   -24.28632225649148
   1901901902.806807   -12.62733960216886   -45.38966003718922  -0.3529111636971028     51.3090101874544  -0.3529111636970939     51.3090101874544   -12.62986998842478   -31.26479155341594
   1921921922.825826   -12.87668850184206   -51.96483341581775  -0.3401723217329783     44.4283971130864  -0.3401723217329683     44.4283971130864   -12.88194528567904   -38.32398592802954
   1941941942.844845   -13.23276953312591    -58.4714662787434  -0.3227943138653628    37.52461694028749  -0.3227943138653628    37.52461694028749   -13.24155797572454   -45.48810566165586
   1961961962.863864   -13.70482645442781   -64.88678426150632  -0.3016413665755424    30.59178728645364  -0.3016413665755284    30.59178728645364   -13.71827503949554   -52.78771055498771
   1981981982.882883   -14.30601979755642    -71.1738751883221  -0.2777540497620967     23.6253972924587  -0.2777540497620827     23.6253972924587   -14.32576033296668   -60.26345845118663
   2002002002.901902   -15.05467307938892   -77.27365507844661  -0.2523015792494183    16.62255190686872  -0.2523015792494273    16.62255190686872   -15.08315571568828   -67.97289809321894
   2022022022.920921   -15.97627943758555   -83.09053211285281  -0.2265251469047608    9.582149209205856  -0.2265251469047786    9.582149209205857   -16.01735587870715   -76.00323227070943
    2042042042.93994   -17.10674548468594   -88.46492361660805  -0.2016741857462576    2.504972526086314  -0.2016741857462714    2.504972526086314   -17.16682535610859   -84.49662552669155
   2062062062.958959   -18.49758645496629    -93.1161524940844  -0.1789385604567552   -4.606319086808588  -0.1789385604567601   -4.606319086808588   -18.58812891856227   -93.70427489376019
   2082082082.977978    -20.2235612237245   -96.51237914388737  -0.1593807477714056   -11.74731337219114  -0.1593807477713771   -11.74731337219114   -20.36700516892687   -104.1137843238567
