! TouchStone data converted from IdEM dataset
# Hz S DB R 50
                   1   -178.0783952574067    90.22945853918696 -4.347766815713032e-11 -3.580196348586213e-07 -4.347766815713032e-11 -3.580196348586213e-07   -178.0783952574045    90.22945853918689
   20020021.01901902   -32.07491320945558    82.98623768234695 -0.003573565175022551    -7.16606949424481 -0.003573565175032198    -7.16606949424481   -32.07478332752283    83.13750505764925
   40040041.03803804    -26.1268988341281    75.75347197629038 -0.01238230263845951   -14.32369582251068 -0.01238230263846434   -14.32369582251068   -26.12664237826538    76.05582927376128
   60060061.05705706   -22.72518465643507    68.53812834499254  -0.0259465676904821   -21.46477069068386  -0.0259465676904937   -21.46477069068386   -22.72480392655978    68.99114249031257
   80080081.07607608   -20.39396623804339    61.34735555335536 -0.04350039532213037   -28.58223693771487 -0.04350039532213909   -28.58223693771487   -20.39346341070596    61.95033657518616
   100100101.0950951   -18.67072922227368    54.18686389798781 -0.06404383639057498   -35.67053272874283 -0.06404383639059733   -35.67053272874284   -18.67010654719405    54.93883938606414
   120120121.1141141   -17.34958618240233    47.06059158707538  -0.0864097879889543   -42.72590780235578 -0.08640978798894845   -42.72590780235578   -17.34884609603907    47.96026686668921
   140140141.1331331   -16.32103163755623    39.97052465154497  -0.1093387437642262   -49.74660736547203  -0.1093387437642291   -49.74660736547203   -16.32017686379458     41.0162267858564
   160160161.1521522   -15.52025711680025    32.91665648398998   -0.131555469785452   -56.73292315166326  -0.1315554697854471   -56.73292315166326   -15.51929078017706    34.10625790205602
   180180181.1711712   -14.90629090801142    25.89707547951225  -0.1518424263648075   -63.68712183096838  -0.1518424263648183   -63.68712183096838   -14.90521667710266     27.2278907347623
   200200201.1901902   -14.45230313581306    18.90816450302749  -0.1691059541399392   -70.61326831496343  -0.1691059541399234   -70.61326831496343    -14.4511254162456    20.37681048683766
   220220221.2092092   -14.14066301143159    11.94489401595803  -0.1824325402585581   -77.51696492830173  -0.1824325402585384   -77.51696492830173    -14.1393872155932    13.54709914918205
   240240241.2282282   -13.96028008375459    5.001192514857489  -0.1911336314171941   -84.40502751456431   -0.191133631417193   -84.40502751456431   -13.95891301885291    6.731532889331862
   260260261.2472472   -13.90516849496887   -1.929616897687142  -0.1947783123000784   -91.28511745854038  -0.1947783123000597   -91.28511745854038   -13.90371893710605 -0.07808873109541604
   280280281.2662663   -13.97375136507751   -8.854316629778198  -0.1932136700734632   -98.16534563092517  -0.1932136700734632   -98.16534563092517   -13.97223093403568    -6.89060518041445
   300300301.2852853   -14.16869656684133    -15.7792216246869  -0.1865728534151418   -105.0538615462077  -0.1865728534151369   -105.0538615462077   -14.16712110436935   -13.71517532447909
   320320321.3043043    -14.4972364815291   -22.70950285964511  -0.1752708042580849   -111.9584394166323   -0.175270804258081   -111.9584394166323   -14.49562830889407   -20.56101114877504
   340340341.3233233   -14.97206186133063   -29.64833810383576  -0.1599875239263158   -118.8860727509188  -0.1599875239263374   -118.8860727509188   -14.97045365143688   -27.43722203306027
   360360361.3423423   -15.61306318974525   -36.59573827368432  -0.1416386787260332   -125.8425907444255   -0.141638678726042   -125.8425907444255    -15.6115049894846   -34.35287572593626
   380380381.3613614   -16.45052958435754   -43.54670363264557  -0.1213334936609951   -132.8323125782833  -0.1213334936610205   -132.8323125782833   -16.44910245994636   -41.31749604584631
   400400401.3803804   -17.53115870395973   -50.48785946186622   -0.100320339258332   -139.8577591174549  -0.1003203392583213   -139.8577591174549   -17.53000368668779   -48.34250713316499
   420420421.3993994   -18.93011342689837   -57.39024281953878 -0.07992124341281748   -146.9194442372612 -0.07992124341283888   -146.9194442372612   -18.92950044043453   -55.44497220695514
   440440441.4184184   -20.77788877318636   -64.19083109684694 -0.06145773162784383   -154.0157687540592 -0.06145773162782343   -154.0157687540592   -20.77840928531319   -62.65784504592119
   460460461.4374374   -23.33054311038765   -70.73339453497819 -0.04617178165157841   -161.1430373638933 -0.04617178165157744   -161.1430373638933   -23.33379445474485   -70.06339637297434
   480480481.4564565   -27.20790168922624   -76.50106102407165 -0.03514702838857947   -168.2956121969006 -0.03514702838857754   -168.2956121969006   -27.22015157481471   -77.94491185274353
   500500501.4754755   -34.76049448621625   -78.08568376357169 -0.02923634936575385    -175.466205509348 -0.02923634936574514    -175.466205509348   -34.84448006437846   -88.23959951332228
   520520521.4944945   -41.35658519563194    63.75992026488225 -0.02900227067966074    177.3537002605055 -0.02900227067966655    177.3537002605055   -41.75349198302345    102.4765130899318
   540540541.5135136   -29.31755002874237    72.48135707215218 -0.03467602317890539     170.173332122892 -0.03467602317890443     170.173332122892   -29.33677571030694    86.03560873721936
   560560561.5325326    -24.4484197495429    67.45066832231228   -0.046139504386739     163.002046197313 -0.04613950438674869     163.002046197313   -24.45161496765234    77.71406074362957
   580580581.5515516    -21.4167044529403    61.08156205283304 -0.06293205961200891    155.8487361423462 -0.06293205961203514    155.8487361423462   -21.41597690863344    70.17915873732092
   600600601.5705706   -19.26029047605875    54.32372291952603 -0.08428129375669056    148.7212806169182 -0.08428129375671783    148.7212806169182   -19.25797780510272    62.90586376330569
   620620621.5895896   -17.62916345625946    47.41631369810601  -0.1091545757964989    141.6260743169523  -0.1091545757965028    141.6260743169523    -17.6260102348068    55.76947861967794
   640640641.6086086    -16.3561316647766    40.44893742618624  -0.1363259692132942    134.5676755282932   -0.136325969213302    134.5676755282932   -16.35244246761575    48.72689300708176
   660660661.6276276   -15.34826333052038    33.46238468211287  -0.1644523075066817    127.5485882773405  -0.1644523075067101    127.5485882773405   -15.34418211778486    41.75934810799279
   680680681.6466466   -14.54871150065722    26.47663504189094  -0.1921520891898791    120.5691821035199  -0.1921520891898672    120.5691821035199   -14.54431194078949     34.8565308910598
   700700701.6656656   -13.92046007624257    19.50087803804109  -0.2180816264711484    113.6277398427121  -0.2180816264711573    113.6277398427121   -13.91578053999248    28.01101670338698
   720720721.6846846   -13.43847559325832    12.53782301873237  -0.2410041432958117    106.7206151935476  -0.2410041432958018    106.7206151935476   -13.43353440265403    21.21610801883993
   740740741.7037038   -13.08557392845224    5.585871358108162  -0.2598489444620863    99.84247764440833  -0.2598489444620823    99.84247764440833   -13.08037642748828    14.46502133389141
   760760761.7227228   -12.85011333121973   -1.359615500649028  -0.2737590833289624    92.98662198242732  -0.2737590833289544    92.98662198242732   -12.84465508328161    7.750694557120064
   780780781.7417418   -12.72466899602981   -8.305475865549909   -0.282126957103681    86.14532190392848   -0.282126957103674    86.14532190392848   -12.71893683368491    1.065919328844157
   800800801.7607608   -12.70528381800758   -15.26014010582754  -0.2846178818891385    79.31021082831305  -0.2846178818891275    79.31021082831305   -12.69925540165039   -5.596330645525886
   820820821.7797798   -12.79109599943651   -22.23317813855282  -0.2811819636271496    72.47267663708155  -0.2811819636271496    72.47267663708155    -12.7847379883003   -12.24242734440321
   840840841.7987988   -12.98425353332477   -29.23498422031271  -0.2720545696308835    65.62425976901966  -0.2720545696308776    65.62425976901966   -12.97751805286359   -18.87747848285143
   860860861.8178178    -13.2900962195698   -36.27662352626118  -0.2577455396562908     58.7570453219006  -0.2577455396562868    58.75704532190061   -13.28291480102375   -25.50454546925683
   880880881.8368368   -13.71764859056493   -43.36991368527771  -0.2390170920348982    51.86403933589771  -0.2390170920348943    51.86403933589771   -13.70992190746355   -32.12359989522953
   900900901.8558558   -14.28054758529358   -50.52789453981357  -0.2168503148161094    44.93951742421046  -0.2168503148161094    44.93951742421046    -14.2721276337716   -38.73003051223859
   920920921.8748748   -14.99866426199874   -57.76599837493846  -0.1924003032468032    37.97933088639631  -0.1924003032467933    37.97933088639631   -14.98932198146327   -45.31230708312659
   940940941.8938938   -15.90094662505671   -65.10458773638909  -0.1669404976166269     30.9811522387384  -0.1669404976166249     30.9811522387384   -15.89030927921516    -51.8479359592617
    960960961.912913    -17.0306029241545   -72.57441024239263  -0.1417976163717673    23.94463984552356  -0.1417976163717722    23.94463984552356   -17.01802275377692   -58.29565558865353
    980980981.931932   -18.45520549220816   -80.22899822262623  -0.1182797138865343    16.87150128244701  -0.1182797138865382    16.87150128244701   -18.43945313906578   -64.57847954756208
   1001001001.950951   -20.28840007972251   -88.17616008104353 -0.09760116855120836    9.765438322046116 -0.09760116855121716    9.765438322046114   -20.26683664122143   -70.54129159524882
    1021021021.96997   -22.74363704071556   -96.67354797806064 -0.08080958098683966    2.631963631759007  -0.0808095809868494    2.631963631759007    -22.7094498353173    -75.8229630216229
   1041041041.988989   -26.29955472279555   -106.5164259542079 -0.06872033583494247   -4.521909786010979 -0.06872033583494636   -4.521909786010978   -26.22875588077341   -79.34317937049103
   1061061062.008008   -32.44254252289105   -121.7944298280315 -0.06186467213214693   -11.68809195161026 -0.06186467213213236   -11.68809195161026   -32.17352895673875    -75.8127138388158
   1081081082.027027   -43.44766699272613     139.478538867038  -0.0604563419539708   -18.85792388083905 -0.06045634195396012   -18.85792388083905   -40.91153455026819   -1.038803467841181
   1101101102.046046   -31.28927082729194    72.88703837963843 -0.06438032394957012   -26.02273067819116 -0.06438032394956818   -26.02273067819116   -31.07846628901317    50.95436982313225
   1121121122.065065   -25.91883537975053     59.2710512485631 -0.07320481929639717   -33.17437383129988 -0.07320481929639232   -33.17437383129987   -25.85197289221435    52.38488489317997
   1141141142.084084   -22.73949731978153    49.76659464258999 -0.08621528482434665   -40.30575673727597 -0.08621528482435055   -40.30575673727597   -22.70376841472441    48.46649953732497
   1161161162.103103   -20.55251566188041    41.40218061592542  -0.1024670097437848   -47.41124382911608    -0.10246700974378   -47.41124382911608   -20.52817256264658    43.07689264917317
   1181181182.122122   -18.94497886347165    33.52642644525952  -0.1208511123200447   -54.48696493003828  -0.1208511123200222   -54.48696493003828   -18.92594885626256    37.09747301058865
   1201201202.141141     -17.726911153405     25.9147788479573  -0.1401680450605028   -61.53099018641323  -0.1401680450604979   -61.53099018641323   -17.71071200217753      30.836359098611
    1221221222.16016   -16.79586156028741    18.46811664574261  -0.1592027633959789    -68.5433744234975  -0.1592027633959907    -68.5433744234975   -16.78128171164917    24.42821269167252
   1241241242.179179   -16.09104581956816    11.13420285741056   -0.176796461255849   -75.52608083799839  -0.1767964612558401   -75.52608083799839   -16.07741356406336    17.93987967876555
   1261261262.198198   -15.57436839506749    3.881014509825574  -0.1919109283146547   -82.48280134651866  -0.1919109283146725   -82.48280134651866   -15.56127031866926    11.40684179045469
   1281281282.217217   -15.22149366607207   -3.313919048062041  -0.2036828425202457   -89.41869445164882  -0.2036828425202477   -89.41869445164882   -15.20864909501741    4.848313531342355
   1301301302.236236   -15.01729797590143   -10.46823720670161  -0.2114664379431583   -96.34006180563172  -0.2114664379431751   -96.34006180563172   -15.00449559598282    -1.72552668626406
   1321321322.255255    -14.9534866902127   -17.59696204045919   -0.214863836141726   -103.2539828614418  -0.2148638361417102   -103.2539828614418   -14.94054803721692   -8.309571789780628
   1341341342.274274   -15.02742971961747   -24.71356078178401  -0.2137428527923532   -110.1679243390174   -0.213742852792369   -110.1679243390174   -15.01418408948604   -14.90127297709533
   1361361362.293293    -15.2418145184532    -31.8304664043178  -0.2082423272546606   -117.0893387848569  -0.2082423272546715   -117.0893387848569   -15.22807695616743   -21.49875011014922
   1381381382.312312   -15.60500615372503   -38.95937874297445  -0.1987650657220571   -124.0252650377176   -0.198765065722068   -124.0252650377176   -15.59055200987365   -28.09905131685152
   1401401402.331331   -16.13223124295093   -46.11157356795784  -0.1859584650682317    -130.981943316764  -0.1859584650682425    -130.981943316764   -16.11675905351544   -34.69615009210898
    1421421422.35035   -16.84799772055523   -53.29847393628127  -0.1706829293008429   -137.9644588994748  -0.1706829293008389   -137.9644588994748   -16.83106533595518      -41.27808511185
   1441441442.369369   -17.79072262099099   -60.53292970997956  -0.1539684254970651   -144.9764305344926   -0.153968425497069   -144.9764305344926   -17.77162261766916   -47.82202353130516
   1461461462.388388    -19.0218557388721   -67.83225024128585  -0.1369600377403482   -152.0197620565377  -0.1369600377403599   -152.0197620565376   -18.99934106897941   -54.28420125824275
   1481481482.407408   -20.64540852200052   -75.22599546270798  -0.1208541932590996   -159.0944770774356  -0.1208541932591065   -159.0944770774356   -20.61699345343674   -60.57579105200497
   1501501502.426426   -22.85573316768602   -82.77924723450499  -0.1068283006889792   -166.1986559516207  -0.1068283006889792   -166.1986559516207   -22.81551077278269   -66.49269967386539
   1521521522.445446   -26.08226982174471   -90.68323047142017 -0.09596770860104505   -173.3284904447035  -0.0959677086010665   -173.3284904447035   -26.01150424969839   -71.44608311487077
   1541541542.464464    -31.6386572155169   -99.84908245187911 -0.08919493125451472    179.5215358510561 -0.08919493125452058    179.5215358510561   -31.42919067274278   -72.75299445673031
   1561561562.483484   -51.67565688073104   -147.9897308086494 -0.08720672122429808    172.3583440241008  -0.0872067212243049    172.3583440241008   -44.48891162985701   -20.79254275195926
   1581581582.502502   -32.80276598118092    74.25390781980116 -0.09042454280264013    165.1898487295758 -0.09042454280264597    165.1898487295758    -32.5970263177891    67.18148695556468
   1601601602.521522   -26.45803038591664    64.60127748770475 -0.09896317094918881    158.0244676621204 -0.09896317094919076    158.0244676621204   -26.41207931755378    67.31898231231342
    1621621622.54054   -22.87386590618476    56.60585869757319  -0.1126205378551452    150.8705900361963  -0.1126205378551452    150.8705900361963   -22.85323247634544    62.60582414061879
    1641641642.55956   -20.41253681111151    49.02284186751935  -0.1308897972597182    143.7360479451316  -0.1308897972597202    143.7360479451316   -20.39972417738859    56.73067816751685
   1661661662.578578   -18.57848811641272    41.62329184919759  -0.1529922495787782    136.6276339026354  -0.1529922495787625    136.6276339026354    -18.5689101772109    50.41451953316134
   1681681682.597598   -17.15434067494727    34.33637454529214  -0.1779276927076023    129.5507014065757  -0.1779276927076043    129.5507014065757   -17.14636072894453      43.896250112479
   1701701702.616617   -16.02512628838045    27.13404976402643  -0.2045372892724998    122.5088744635159  -0.2045372892724998    122.5088744635159   -16.01805595669003    37.27809379451698
   1721721722.635636   -15.12267920643083    20.00295993197586  -0.2315733649919872     115.503879000096  -0.2315733649919951     115.503879000096   -15.11620642206381     30.6102649721722
   1741741742.654655   -14.40343103399702    12.93525634741747  -0.2577706730802134    108.5354964556137  -0.2577706730802044    108.5354964556137   -14.39741821003263    23.91882526707255
   1761761762.673674   -13.83813560111854     5.92509846542437  -0.2819144086062752    101.6016296003088  -0.2819144086062723    101.6016296003088   -13.83253829576084    17.21677624925094
   1781781782.692693   -13.40660858435034   -1.032736660903351  -0.3029013725894145    94.69846386996269  -0.3029013725894334    94.69846386996269   -13.40144041281697    10.50915467264298
   1801801802.711712    -13.0948370911691   -7.943315358434222  -0.3197918943200502    87.82070441073839  -0.3197918943200583    87.82070441073839   -13.09015509141862     3.79566544534736
   1821821822.730731   -12.89331693529679   -14.81153111221794  -0.3318511999084395    80.96186899525169  -0.3318511999084395    80.96186899525169   -12.88921754694766   -2.927818149396367
    1841841842.74975   -12.79607933934956   -21.64179843806721  -0.3385797286042107    74.11461897871597  -0.3385797286042377    74.11461897871597   -12.79270127178543   -9.668341677346936
   1861861862.768769   -12.80013899617033   -28.43752810619628   -0.339732398367483    67.27111338065806   -0.339732398367493    67.27111338065806   -12.79767209635051   -16.43531558459105
   1881881882.787788   -12.90522897716071   -35.20038869656994  -0.3353270346616787    60.42337399926524  -0.3353270346616908    60.42337399926524   -12.90393001908495   -23.24023925479868
   1901901902.806807   -13.11376264525661   -41.92930339331745  -0.3256421785003377    53.56365145063292  -0.3256421785003467    53.56365145063292   -13.11398078490667    -30.0967107668501
   1921921922.825826   -13.43101357267523   -48.61905981377443  -0.3112043870836914    46.68478274861509  -0.3112043870836784    46.68478274861509   -13.43323087233488   -37.02080986129142
   1941941942.844845   -13.86555131902605   -55.25829317878464  -0.2927650490251142     39.7805304012605  -0.2927650490251232    39.78053040126049   -13.87044847022027   -44.03205119173192
   1961961962.863864   -14.43003086273086   -61.82638004499429  -0.2712667677725161    32.84589121109281   -0.271266767772527    32.84589121109281   -14.43859752970579   -51.15529867176706
   1981981982.882883   -15.14253038925881   -68.28831845661158  -0.2477996138251667    25.87736054314207  -0.2477996138251667    25.87736054314207   -15.15625929898425   -58.42442282010376
   2002002002.901902   -16.02881136905743   -74.58564327674132  -0.2235480653303077    18.87313554741306  -0.2235480653302869    18.87313554741306   -16.05006037269604    -65.8893497730903
   2022022022.920921   -17.12623524960646   -80.61894709928455  -0.1997302495248837     11.8332396594203  -0.1997302495248708     11.8332396594203    -17.1589543968023   -73.63025684458667
    2042042042.93994   -18.49084235686068   -86.21098713672211  -0.1775320945393222    4.759551656313376  -0.1775320945393241    4.759551656313376   -18.54217771004444    -81.7883633663261
   2062062062.958959   -20.21081278614098    -91.0195755557374  -0.1580400538370941   -2.344273579091093  -0.1580400538370863   -2.344273579091093   -20.29510594721688   -90.64034305442371
   2082082082.977978   -22.43309373011461   -94.30020279059305  -0.1421769592383891   -9.472998316077796   -0.142176959238396   -9.472998316077796   -22.58364649225552   -100.8079255302292
