# GHZ S MA R 50.00000
0.10000000 0.026519 85.151 0.998204 -1.728 0.998204 -1.728 0.026519 85.177
0.15000000 0.039320 84.821 0.997438 -2.567 0.997438 -2.567 0.039319 84.861
0.20000000 0.052037 84.295 0.996565 -3.402 0.996565 -3.402 0.052036 84.348
0.25000000 0.064687 83.677 0.995568 -4.233 0.995568 -4.233 0.064686 83.744
0.30000000 0.077275 83.007 0.994439 -5.061 0.994439 -5.061 0.077274 83.087
0.35000000 0.089802 82.304 0.993175 -5.887 0.993175 -5.887 0.089800 82.398
0.40000000 0.102266 81.580 0.991775 -6.709 0.991775 -6.709 0.102263 81.688
0.45000000 0.114664 80.842 0.990237 -7.529 0.990237 -7.529 0.114662 80.963
0.50000000 0.126994 80.093 0.988562 -8.346 0.988562 -8.346 0.126991 80.228
0.55000000 0.139253 79.337 0.986751 -9.160 0.986751 -9.160 0.139249 79.486
0.60000000 0.151435 78.577 0.984805 -9.971 0.984805 -9.971 0.151431 78.739
0.65000000 0.163537 77.813 0.982726 -10.78 0.982726 -10.78 0.163533 77.989
0.70000000 0.175556 77.047 0.980517 -11.58 0.980517 -11.58 0.175551 77.237
0.75000000 0.187487 76.280 0.978180 -12.38 0.978180 -12.38 0.187482 76.484
0.80000000 0.199326 75.514 0.975716 -13.18 0.975716 -13.18 0.199320 75.731
0.85000000 0.211070 74.748 0.973130 -13.97 0.973130 -13.97 0.211064 74.978
0.90000000 0.222714 73.983 0.970424 -14.76 0.970424 -14.76 0.222708 74.227
0.95000000 0.234256 73.220 0.967601 -15.55 0.967601 -15.55 0.234249 73.478
1.00000000 0.245692 72.459 0.964665 -16.33 0.964665 -16.33 0.245684 72.731
1.05000000 0.257018 71.700 0.961618 -17.11 0.961618 -17.11 0.257010 71.986
1.10000000 0.268232 70.945 0.958464 -17.88 0.958464 -17.88 0.268223 71.245
1.15000000 0.279330 70.192 0.955208 -18.64 0.955208 -18.64 0.279321 70.506
1.20000000 0.290311 69.443 0.951851 -19.41 0.951851 -19.41 0.290301 69.771
1.25000000 0.301170 68.698 0.948399 -20.16 0.948399 -20.16 0.301160 69.040
1.30000000 0.311907 67.957 0.944854 -20.92 0.944854 -20.92 0.311897 68.313
1.35000000 0.322519 67.219 0.941221 -21.66 0.941221 -21.66 0.322508 67.590
1.40000000 0.333004 66.486 0.937502 -22.41 0.937502 -22.41 0.332992 66.871
1.45000000 0.343360 65.758 0.933703 -23.14 0.933703 -23.14 0.343348 66.156
1.50000000 0.353585 65.034 0.929827 -23.87 0.929827 -23.87 0.353573 65.447
1.55000000 0.363679 64.314 0.925877 -24.60 0.925877 -24.60 0.363666 64.742
1.60000000 0.373639 63.600 0.921857 -25.32 0.921857 -25.32 0.373626 64.042
1.65000000 0.383465 62.891 0.917771 -26.04 0.917771 -26.04 0.383452 63.347
1.70000000 0.393157 62.186 0.913623 -26.74 0.913623 -26.74 0.393143 62.657
1.75000000 0.402712 61.487 0.909417 -27.45 0.909417 -27.45 0.402698 61.972
1.80000000 0.412131 60.793 0.905155 -28.15 0.905155 -28.15 0.412117 61.293
1.85000000 0.421413 60.105 0.900842 -28.84 0.900842 -28.84 0.421399 60.619
1.90000000 0.430559 59.421 0.896480 -29.52 0.896480 -29.52 0.430544 59.950
1.95000000 0.439567 58.743 0.892075 -30.20 0.892075 -30.20 0.439552 59.287
2.00000000 0.448438 58.071 0.887628 -30.88 0.887628 -30.88 0.448422 58.630
2.05000000 0.457172 57.404 0.883143 -31.55 0.883143 -31.55 0.457156 57.978
2.10000000 0.465770 56.743 0.878624 -32.21 0.878624 -32.21 0.465754 57.332
2.15000000 0.474231 56.087 0.874073 -32.87 0.874073 -32.87 0.474215 56.691
2.20000000 0.482556 55.437 0.869494 -33.52 0.869494 -33.52 0.482540 56.056
2.25000000 0.490747 54.793 0.864889 -34.16 0.864889 -34.16 0.490730 55.427
2.30000000 0.498803 54.154 0.860262 -34.80 0.860262 -34.80 0.498786 54.803
2.35000000 0.506725 53.520 0.855616 -35.44 0.855616 -35.44 0.506709 54.185
2.40000000 0.514515 52.893 0.850952 -36.06 0.850952 -36.06 0.514498 53.573
2.45000000 0.522173 52.271 0.846275 -36.68 0.846275 -36.68 0.522157 52.966
2.50000000 0.529701 51.654 0.841586 -37.30 0.841586 -37.30 0.529684 52.366
2.55000000 0.537100 51.044 0.836888 -37.91 0.836888 -37.91 0.537083 51.770
2.60000000 0.544370 50.438 0.832183 -38.51 0.832183 -38.51 0.544353 51.181
2.65000000 0.551513 49.839 0.827473 -39.11 0.827473 -39.11 0.551497 50.597
2.70000000 0.558531 49.245 0.822762 -39.70 0.822762 -39.70 0.558515 50.019
2.75000000 0.565425 48.656 0.818051 -40.29 0.818051 -40.29 0.565409 49.446
2.80000000 0.572196 48.073 0.813341 -40.87 0.813341 -40.87 0.572180 48.879
2.85000000 0.578846 47.495 0.808636 -41.45 0.808636 -41.45 0.578830 48.318
2.90000000 0.585377 46.923 0.803937 -42.02 0.803937 -42.02 0.585361 47.762
2.95000000 0.591789 46.356 0.799245 -42.58 0.799245 -42.58 0.591773 47.212
3.00000000 0.598085 45.795 0.794563 -43.14 0.794563 -43.14 0.598069 46.667
3.05000000 0.604266 45.239 0.789892 -43.69 0.789892 -43.69 0.604250 46.127
3.10000000 0.610333 44.688 0.785233 -44.24 0.785233 -44.24 0.610318 45.593
3.15000000 0.616289 44.142 0.780589 -44.78 0.780589 -44.78 0.616274 45.064
3.20000000 0.622135 43.601 0.775960 -45.32 0.775960 -45.32 0.622121 44.540
3.25000000 0.627873 43.066 0.771349 -45.85 0.771349 -45.85 0.627859 44.022
3.30000000 0.633504 42.535 0.766755 -46.38 0.766755 -46.38 0.633490 43.509
3.35000000 0.639030 42.010 0.762181 -46.90 0.762181 -46.90 0.639017 43.000
3.40000000 0.644453 41.490 0.757628 -47.41 0.757628 -47.41 0.644440 42.497
3.45000000 0.649774 40.974 0.753096 -47.93 0.753096 -47.93 0.649762 41.999
3.50000000 0.654996 40.463 0.748587 -48.43 0.748587 -48.43 0.654985 41.506
3.55000000 0.660119 39.957 0.744102 -48.93 0.744102 -48.93 0.660109 41.018
3.60000000 0.665146 39.456 0.739641 -49.43 0.739641 -49.43 0.665136 40.535
3.65000000 0.670079 38.959 0.735206 -49.92 0.735206 -49.92 0.670069 40.056
3.70000000 0.674918 38.467 0.730797 -50.41 0.730797 -50.41 0.674909 39.582
3.75000000 0.679665 37.980 0.726415 -50.89 0.726415 -50.89 0.679658 39.113
3.80000000 0.684323 37.497 0.722060 -51.37 0.722060 -51.37 0.684317 38.648
3.85000000 0.688893 37.019 0.717734 -51.84 0.717734 -51.84 0.688888 38.189
3.90000000 0.693377 36.545 0.713436 -52.31 0.713436 -52.31 0.693372 37.733
3.95000000 0.697775 36.075 0.709168 -52.77 0.709168 -52.77 0.697771 37.282
4.00000000 0.702090 35.609 0.704930 -53.23 0.704930 -53.23 0.702087 36.836
4.05000000 0.706323 35.148 0.700723 -53.69 0.700723 -53.69 0.706321 36.393
4.10000000 0.710476 34.691 0.696546 -54.14 0.696546 -54.14 0.710476 35.955
4.15000000 0.714551 34.238 0.692400 -54.59 0.692400 -54.59 0.714551 35.522
4.20000000 0.718548 33.788 0.688286 -55.03 0.688286 -55.03 0.718549 35.092
4.25000000 0.722469 33.343 0.684204 -55.47 0.684204 -55.47 0.722472 34.667
4.30000000 0.726317 32.902 0.680154 -55.90 0.680154 -55.90 0.726321 34.245
4.35000000 0.730091 32.465 0.676136 -56.33 0.676136 -56.33 0.730096 33.828
4.40000000 0.733794 32.031 0.672151 -56.76 0.672151 -56.76 0.733801 33.415
4.45000000 0.737427 31.601 0.668199 -57.18 0.668199 -57.18 0.737436 33.005
4.50000000 0.740992 31.175 0.664280 -57.60 0.664280 -57.60 0.741002 32.599
4.55000000 0.744489 30.752 0.660394 -58.02 0.660394 -58.02 0.744501 32.198
4.60000000 0.747921 30.333 0.656541 -58.43 0.656541 -58.43 0.747934 31.799
4.65000000 0.751288 29.917 0.652722 -58.83 0.652722 -58.83 0.751302 31.405
4.70000000 0.754592 29.505 0.648936 -59.24 0.648936 -59.24 0.754608 31.014
4.75000000 0.757833 29.096 0.645183 -59.64 0.645183 -59.64 0.757851 30.627
4.80000000 0.761015 28.691 0.641464 -60.04 0.641464 -60.04 0.761034 30.243
4.85000000 0.764136 28.289 0.637779 -60.43 0.637779 -60.43 0.764157 29.862
4.90000000 0.767199 27.890 0.634127 -60.82 0.634127 -60.82 0.767222 29.485
4.95000000 0.770205 27.494 0.630509 -61.21 0.630509 -61.21 0.770230 29.112
5.00000000 0.773155 27.101 0.626924 -61.59 0.626924 -61.59 0.773182 28.741
5.05000000 0.776050 26.712 0.623372 -61.97 0.623372 -61.97 0.776080 28.374
5.10000000 0.778892 26.325 0.619854 -62.35 0.619854 -62.35 0.778923 28.011
5.15000000 0.781681 25.941 0.616369 -62.73 0.616369 -62.73 0.781714 27.650
5.20000000 0.784418 25.560 0.612917 -63.10 0.612917 -63.10 0.784453 27.292
5.25000000 0.787105 25.182 0.609498 -63.47 0.609498 -63.47 0.787142 26.938
5.30000000 0.789742 24.807 0.606113 -63.83 0.606113 -63.83 0.789782 26.586
5.35000000 0.792330 24.435 0.602760 -64.20 0.602760 -64.20 0.792373 26.238
5.40000000 0.794871 24.065 0.599439 -64.56 0.599439 -64.56 0.794916 25.892
5.45000000 0.797366 23.698 0.596152 -64.91 0.596152 -64.91 0.797413 25.549
5.50000000 0.799815 23.333 0.592896 -65.27 0.592896 -65.27 0.799865 25.209
5.55000000 0.802219 22.971 0.589673 -65.62 0.589673 -65.62 0.802272 24.872
5.60000000 0.804579 22.612 0.586482 -65.97 0.586482 -65.97 0.804635 24.538
5.65000000 0.806897 22.255 0.583323 -66.32 0.583323 -66.32 0.806955 24.206
5.70000000 0.809172 21.900 0.580195 -66.66 0.580195 -66.66 0.809233 23.877
5.75000000 0.811406 21.548 0.577100 -67.00 0.577100 -67.00 0.811470 23.550
5.80000000 0.813600 21.198 0.574035 -67.34 0.574035 -67.34 0.813667 23.226
5.85000000 0.815755 20.851 0.571002 -67.68 0.571002 -67.68 0.815824 22.905
5.90000000 0.817870 20.505 0.567999 -68.01 0.567999 -68.01 0.817943 22.586
5.95000000 0.819947 20.162 0.565027 -68.34 0.565027 -68.34 0.820024 22.270
6.00000000 0.821988 19.821 0.562086 -68.67 0.562086 -68.67 0.822067 21.956
6.05000000 0.823991 19.482 0.559176 -69.00 0.559176 -69.00 0.824074 21.644
6.10000000 0.825959 19.145 0.556295 -69.33 0.556295 -69.33 0.826045 21.335
6.15000000 0.827892 18.810 0.553444 -69.65 0.553444 -69.65 0.827982 21.028
6.20000000 0.829791 18.477 0.550623 -69.97 0.550623 -69.97 0.829884 20.723
6.25000000 0.831656 18.146 0.547832 -70.29 0.547832 -70.29 0.831752 20.420
6.30000000 0.833488 17.817 0.545069 -70.61 0.545069 -70.61 0.833588 20.120
6.35000000 0.835287 17.490 0.542336 -70.92 0.542336 -70.92 0.835391 19.822
6.40000000 0.837055 17.165 0.539632 -71.23 0.539632 -71.23 0.837163 19.526
6.45000000 0.838791 16.841 0.536956 -71.55 0.536956 -71.55 0.838903 19.232
6.50000000 0.840497 16.519 0.534308 -71.85 0.534308 -71.85 0.840613 18.940
6.55000000 0.842173 16.199 0.531689 -72.16 0.531689 -72.16 0.842293 18.650
6.60000000 0.843820 15.880 0.529098 -72.47 0.529098 -72.47 0.843944 18.362
6.65000000 0.845438 15.563 0.526534 -72.77 0.526534 -72.77 0.845567 18.076
6.70000000 0.847028 15.248 0.523998 -73.07 0.523998 -73.07 0.847161 17.792
6.75000000 0.848590 14.934 0.521490 -73.37 0.521490 -73.37 0.848727 17.509
6.80000000 0.850125 14.622 0.519008 -73.67 0.519008 -73.67 0.850267 17.229
6.85000000 0.851633 14.311 0.516553 -73.97 0.516553 -73.97 0.851779 16.951
6.90000000 0.853115 14.002 0.514125 -74.26 0.514125 -74.26 0.853266 16.674
6.95000000 0.854571 13.694 0.511723 -74.55 0.511723 -74.55 0.854727 16.399
7.00000000 0.856002 13.388 0.509347 -74.85 0.509347 -74.85 0.856163 16.126
7.05000000 0.857409 13.083 0.506997 -75.14 0.506997 -75.14 0.857575 15.854
7.10000000 0.858791 12.779 0.504674 -75.43 0.504674 -75.43 0.858962 15.584
7.15000000 0.860149 12.476 0.502375 -75.71 0.502375 -75.71 0.860326 15.316
7.20000000 0.861484 12.175 0.500102 -76.00 0.500102 -76.00 0.861666 15.049
7.25000000 0.862797 11.875 0.497854 -76.28 0.497854 -76.28 0.862984 14.784
7.30000000 0.864086 11.576 0.495631 -76.57 0.495631 -76.57 0.864279 14.521
7.35000000 0.865354 11.279 0.493433 -76.85 0.493433 -76.85 0.865552 14.259
7.40000000 0.866599 10.982 0.491259 -77.13 0.491259 -77.13 0.866804 13.999
7.45000000 0.867824 10.686 0.489110 -77.41 0.489110 -77.41 0.868034 13.740
7.50000000 0.869027 10.392 0.486984 -77.68 0.486984 -77.68 0.869244 13.482
7.55000000 0.870210 10.099 0.484883 -77.96 0.484883 -77.96 0.870433 13.227
7.60000000 0.871373 9.8062 0.482805 -78.24 0.482805 -78.24 0.871602 12.972
7.65000000 0.872516 9.5148 0.480751 -78.51 0.480751 -78.51 0.872751 12.719
7.70000000 0.873639 9.2243 0.478720 -78.78 0.478720 -78.78 0.873881 12.467
7.75000000 0.874744 8.9347 0.476713 -79.06 0.476713 -79.06 0.874992 12.217
7.80000000 0.875829 8.6460 0.474728 -79.33 0.474728 -79.33 0.876084 11.968
7.85000000 0.876896 8.3582 0.472766 -79.60 0.472766 -79.60 0.877158 11.720
7.90000000 0.877945 8.0711 0.470827 -79.86 0.470827 -79.86 0.878213 11.473
7.95000000 0.878975 7.7849 0.468910 -80.13 0.468910 -80.13 0.879251 11.228
8.00000000 0.879989 7.4994 0.467015 -80.40 0.467015 -80.40 0.880272 10.984
8.05000000 0.880985 7.2147 0.465142 -80.66 0.465142 -80.66 0.881275 10.741
8.10000000 0.881963 6.9307 0.463292 -80.93 0.463292 -80.93 0.882262 10.500
8.15000000 0.882926 6.6474 0.461463 -81.19 0.461463 -81.19 0.883232 10.259
8.20000000 0.883871 6.3647 0.459655 -81.46 0.459655 -81.46 0.884185 10.020
8.25000000 0.884801 6.0827 0.457869 -81.72 0.457869 -81.72 0.885123 9.7819
8.30000000 0.885715 5.8013 0.456105 -81.98 0.456105 -81.98 0.886045 9.5449
8.35000000 0.886613 5.5204 0.454361 -82.24 0.454361 -82.24 0.886951 9.3090
8.40000000 0.887495 5.2401 0.452638 -82.50 0.452638 -82.50 0.887842 9.0741
8.45000000 0.888363 4.9603 0.450936 -82.76 0.450936 -82.76 0.888718 8.8403
8.50000000 0.889215 4.6810 0.449255 -83.01 0.449255 -83.01 0.889580 8.6076
8.55000000 0.890053 4.4021 0.447594 -83.27 0.447594 -83.27 0.890426 8.3759
8.60000000 0.890876 4.1238 0.445954 -83.53 0.445954 -83.53 0.891259 8.1452
8.65000000 0.891686 3.8458 0.444334 -83.78 0.444334 -83.78 0.892077 7.9154
8.70000000 0.892481 3.5682 0.442733 -84.04 0.442733 -84.04 0.892882 7.6867
8.75000000 0.893262 3.2909 0.441153 -84.29 0.441153 -84.29 0.893673 7.4588
8.80000000 0.894029 3.0141 0.439593 -84.55 0.439593 -84.55 0.894450 7.2320
8.85000000 0.894783 2.7375 0.438052 -84.80 0.438052 -84.80 0.895214 7.0060
8.90000000 0.895524 2.4612 0.436531 -85.05 0.436531 -85.05 0.895965 6.7809
8.95000000 0.896252 2.1851 0.435029 -85.30 0.435029 -85.30 0.896704 6.5567
9.00000000 0.896967 1.9093 0.433546 -85.56 0.433546 -85.56 0.897429 6.3334
9.05000000 0.897670 1.6337 0.432083 -85.81 0.432083 -85.81 0.898142 6.1109
9.10000000 0.898359 1.3583 0.430639 -86.06 0.430639 -86.06 0.898843 5.8893
9.15000000 0.899037 1.0830 0.429213 -86.31 0.429213 -86.31 0.899532 5.6684
9.20000000 0.899702 0.8078 0.427807 -86.56 0.427807 -86.56 0.900209 5.4484
9.25000000 0.900355 0.5328 0.426419 -86.81 0.426419 -86.81 0.900874 5.2292
9.30000000 0.900997 0.2578 0.425050 -87.06 0.425050 -87.06 0.901527 5.0107
9.35000000 0.901627 -0.017 0.423699 -87.30 0.423699 -87.30 0.902169 4.7930
9.40000000 0.902245 -0.292 0.422367 -87.55 0.422367 -87.55 0.902799 4.5760
9.45000000 0.902852 -0.567 0.421053 -87.80 0.421053 -87.80 0.903419 4.3598
9.50000000 0.903447 -0.842 0.419758 -88.05 0.419758 -88.05 0.904027 4.1442
9.55000000 0.904032 -1.117 0.418480 -88.29 0.418480 -88.29 0.904625 3.9294
9.60000000 0.904605 -1.392 0.417221 -88.54 0.417221 -88.54 0.905211 3.7152
9.65000000 0.905168 -1.667 0.415979 -88.79 0.415979 -88.79 0.905788 3.5018
9.70000000 0.905720 -1.942 0.414756 -89.03 0.414756 -89.03 0.906353 3.2889
9.75000000 0.906261 -2.218 0.413550 -89.28 0.413550 -89.28 0.906909 3.0767
9.80000000 0.906792 -2.493 0.412362 -89.52 0.412362 -89.52 0.907454 2.8652
9.85000000 0.907312 -2.769 0.411192 -89.77 0.411192 -89.77 0.907989 2.6542
9.90000000 0.907823 -3.045 0.410039 -90.01 0.410039 -90.01 0.908514 2.4439
9.95000000 0.908323 -3.322 0.408904 -90.26 0.408904 -90.26 0.909029 2.2342
10.0000000 0.908813 -3.598 0.407786 -90.50 0.407786 -90.50 0.909535 2.0250
