# GHZ S MA R 50.00000
0.10000000 0.022808 85.605 0.998594 -1.520 0.998594 -1.520 0.022808 85.634
0.15000000 0.033850 85.328 0.998005 -2.260 0.998005 -2.260 0.033849 85.372
0.20000000 0.044829 84.873 0.997337 -2.997 0.997337 -2.997 0.044828 84.931
0.25000000 0.055758 84.333 0.996578 -3.731 0.996578 -3.731 0.055757 84.406
0.30000000 0.066643 83.745 0.995723 -4.463 0.995723 -4.463 0.066642 83.833
0.35000000 0.077485 83.127 0.994766 -5.194 0.994766 -5.194 0.077484 83.229
0.40000000 0.088285 82.488 0.993707 -5.922 0.993707 -5.922 0.088283 82.605
0.45000000 0.099040 81.836 0.992545 -6.648 0.992545 -6.648 0.099038 81.968
0.50000000 0.109749 81.173 0.991279 -7.373 0.991279 -7.373 0.109747 81.320
0.55000000 0.120409 80.504 0.989909 -8.095 0.989909 -8.095 0.120407 80.665
0.60000000 0.131019 79.828 0.988437 -8.815 0.988437 -8.815 0.131017 80.005
0.65000000 0.141576 79.150 0.986863 -9.533 0.986863 -9.533 0.141573 79.341
0.70000000 0.152077 78.468 0.985187 -10.25 0.985187 -10.25 0.152074 78.674
0.75000000 0.162520 77.785 0.983412 -10.96 0.983412 -10.96 0.162517 78.006
0.80000000 0.172902 77.101 0.981539 -11.67 0.981539 -11.67 0.172898 77.337
0.85000000 0.183220 76.416 0.979569 -12.38 0.979569 -12.38 0.183216 76.667
0.90000000 0.193472 75.732 0.977503 -13.09 0.977503 -13.09 0.193467 75.998
0.95000000 0.203655 75.048 0.975344 -13.79 0.975344 -13.79 0.203650 75.329
1.00000000 0.213766 74.365 0.973094 -14.49 0.973094 -14.49 0.213761 74.660
1.05000000 0.223804 73.683 0.970754 -15.19 0.970754 -15.19 0.223799 73.994
1.10000000 0.233767 73.002 0.968327 -15.88 0.968327 -15.88 0.233761 73.328
1.15000000 0.243651 72.323 0.965814 -16.57 0.965814 -16.57 0.243645 72.665
1.20000000 0.253454 71.647 0.963218 -17.26 0.963218 -17.26 0.253448 72.003
1.25000000 0.263176 70.972 0.960540 -17.95 0.960540 -17.95 0.263170 71.344
1.30000000 0.272813 70.300 0.957784 -18.63 0.957784 -18.63 0.272806 70.687
1.35000000 0.282364 69.630 0.954951 -19.31 0.954951 -19.31 0.282357 70.033
1.40000000 0.291827 68.963 0.952044 -19.98 0.952044 -19.98 0.291820 69.381
1.45000000 0.301201 68.299 0.949065 -20.65 0.949065 -20.65 0.301194 68.732
1.50000000 0.310484 67.638 0.946017 -21.32 0.946017 -21.32 0.310476 68.087
1.55000000 0.319674 66.979 0.942902 -21.98 0.942902 -21.98 0.319666 67.444
1.60000000 0.328771 66.324 0.939722 -22.64 0.939722 -22.64 0.328763 66.804
1.65000000 0.337772 65.673 0.936479 -23.30 0.936479 -23.30 0.337764 66.168
1.70000000 0.346678 65.024 0.933177 -23.95 0.933177 -23.95 0.346670 65.536
1.75000000 0.355486 64.379 0.929817 -24.60 0.929817 -24.60 0.355478 64.907
1.80000000 0.364197 63.738 0.926403 -25.24 0.926403 -25.24 0.364188 64.281
1.85000000 0.372809 63.100 0.922936 -25.88 0.922936 -25.88 0.372800 63.659
1.90000000 0.381321 62.466 0.919419 -26.51 0.919419 -26.51 0.381312 63.041
1.95000000 0.389733 61.836 0.915854 -27.15 0.915854 -27.15 0.389724 62.427
2.00000000 0.398045 61.209 0.912243 -27.77 0.912243 -27.77 0.398036 61.817
2.05000000 0.406255 60.587 0.908590 -28.40 0.908590 -28.40 0.406246 61.210
2.10000000 0.414364 59.968 0.904896 -29.01 0.904896 -29.01 0.414355 60.608
2.15000000 0.422372 59.353 0.901163 -29.63 0.901163 -29.63 0.422363 60.009
2.20000000 0.430277 58.742 0.897394 -30.24 0.897394 -30.24 0.430268 59.415
2.25000000 0.438081 58.135 0.893591 -30.85 0.893591 -30.85 0.438072 58.824
2.30000000 0.445782 57.533 0.889757 -31.45 0.889757 -31.45 0.445774 58.238
2.35000000 0.453382 56.934 0.885892 -32.04 0.885892 -32.04 0.453373 57.656
2.40000000 0.460880 56.339 0.882001 -32.64 0.882001 -32.64 0.460872 57.078
2.45000000 0.468277 55.749 0.878084 -33.23 0.878084 -33.23 0.468268 56.505
2.50000000 0.475572 55.162 0.874143 -33.81 0.874143 -33.81 0.475564 55.935
2.55000000 0.482766 54.580 0.870181 -34.39 0.870181 -34.39 0.482758 55.370
2.60000000 0.489860 54.002 0.866199 -34.97 0.866199 -34.97 0.489852 54.809
2.65000000 0.496854 53.428 0.862200 -35.54 0.862200 -35.54 0.496846 54.252
2.70000000 0.503748 52.858 0.858185 -36.10 0.858185 -36.10 0.503740 53.699
2.75000000 0.510543 52.292 0.854156 -36.67 0.854156 -36.67 0.510536 53.151
2.80000000 0.517239 51.730 0.850115 -37.23 0.850115 -37.23 0.517233 52.607
2.85000000 0.523838 51.173 0.846064 -37.78 0.846064 -37.78 0.523832 52.067
2.90000000 0.530340 50.620 0.842004 -38.33 0.842004 -38.33 0.530334 51.532
2.95000000 0.536745 50.070 0.837936 -38.87 0.837936 -38.87 0.536739 51.000
3.00000000 0.543055 49.525 0.833863 -39.42 0.833863 -39.42 0.543050 50.473
3.05000000 0.549270 48.984 0.829785 -39.95 0.829785 -39.95 0.549265 49.950
3.10000000 0.555391 48.447 0.825705 -40.48 0.825705 -40.48 0.555387 49.431
3.15000000 0.561419 47.914 0.821624 -41.01 0.821624 -41.01 0.561415 48.917
3.20000000 0.567355 47.385 0.817543 -41.54 0.817543 -41.54 0.567351 48.406
3.25000000 0.573199 46.861 0.813463 -42.06 0.813463 -42.06 0.573197 47.900
3.30000000 0.578954 46.340 0.809386 -42.57 0.809386 -42.57 0.578952 47.398
3.35000000 0.584619 45.823 0.805313 -43.08 0.805313 -43.08 0.584617 46.900
3.40000000 0.590195 45.310 0.801245 -43.59 0.801245 -43.59 0.590194 46.406
3.45000000 0.595684 44.801 0.797183 -44.10 0.797183 -44.10 0.595684 45.916
3.50000000 0.601087 44.296 0.793129 -44.59 0.793129 -44.59 0.601088 45.430
3.55000000 0.606405 43.794 0.789083 -45.09 0.789083 -45.09 0.606406 44.948
3.60000000 0.611638 43.297 0.785046 -45.58 0.785046 -45.58 0.611641 44.470
3.65000000 0.616789 42.803 0.781020 -46.07 0.781020 -46.07 0.616792 43.996
3.70000000 0.621857 42.313 0.777005 -46.55 0.777005 -46.55 0.621861 43.526
3.75000000 0.626844 41.827 0.773003 -47.03 0.773003 -47.03 0.626849 43.060
3.80000000 0.631751 41.345 0.769013 -47.51 0.769013 -47.51 0.631757 42.597
3.85000000 0.636579 40.866 0.765037 -47.98 0.765037 -47.98 0.636586 42.139
3.90000000 0.641329 40.391 0.761076 -48.45 0.761076 -48.45 0.641337 41.684
3.95000000 0.646003 39.919 0.757130 -48.91 0.757130 -48.91 0.646012 41.233
4.00000000 0.650601 39.451 0.753201 -49.37 0.753201 -49.37 0.650611 40.786
4.05000000 0.655124 38.987 0.749288 -49.83 0.749288 -49.83 0.655136 40.342
4.10000000 0.659574 38.526 0.745392 -50.29 0.745392 -50.29 0.659587 39.902
4.15000000 0.663952 38.068 0.741515 -50.74 0.741515 -50.74 0.663966 39.466
4.20000000 0.668258 37.614 0.737656 -51.18 0.737656 -51.18 0.668273 39.033
4.25000000 0.672494 37.163 0.733816 -51.62 0.733816 -51.62 0.672511 38.603
4.30000000 0.676661 36.716 0.729995 -52.06 0.729995 -52.06 0.676679 38.178
4.35000000 0.680760 36.271 0.726195 -52.50 0.726195 -52.50 0.680779 37.755
4.40000000 0.684791 35.830 0.722415 -52.93 0.722415 -52.93 0.684812 37.337
4.45000000 0.688757 35.393 0.718656 -53.36 0.718656 -53.36 0.688779 36.921
4.50000000 0.692658 34.958 0.714919 -53.79 0.714919 -53.79 0.692682 36.509
4.55000000 0.696494 34.527 0.711203 -54.21 0.711203 -54.21 0.696520 36.100
4.60000000 0.700268 34.098 0.707509 -54.63 0.707509 -54.63 0.700296 35.695
4.65000000 0.703980 33.673 0.703838 -55.05 0.703838 -55.05 0.704009 35.292
4.70000000 0.707631 33.251 0.700189 -55.46 0.700189 -55.46 0.707662 34.893
4.75000000 0.711222 32.831 0.696563 -55.87 0.696563 -55.87 0.711255 34.497
4.80000000 0.714754 32.415 0.692961 -56.28 0.692961 -56.28 0.714789 34.105
4.85000000 0.718228 32.002 0.689382 -56.68 0.689382 -56.68 0.718265 33.715
4.90000000 0.721645 31.591 0.685827 -57.08 0.685827 -57.08 0.721684 33.328
4.95000000 0.725007 31.183 0.682295 -57.48 0.682295 -57.48 0.725047 32.945
5.00000000 0.728313 30.778 0.678788 -57.88 0.678788 -57.88 0.728355 32.564
5.05000000 0.731564 30.376 0.675305 -58.27 0.675305 -58.27 0.731609 32.187
5.10000000 0.734763 29.976 0.671846 -58.66 0.671846 -58.66 0.734810 31.812
5.15000000 0.737909 29.579 0.668412 -59.04 0.668412 -59.04 0.737959 31.440
5.20000000 0.741004 29.185 0.665003 -59.43 0.665003 -59.43 0.741056 31.071
5.25000000 0.744048 28.793 0.661618 -59.81 0.661618 -59.81 0.744102 30.705
5.30000000 0.747042 28.404 0.658258 -60.19 0.658258 -60.19 0.747099 30.341
5.35000000 0.749988 28.017 0.654923 -60.56 0.654923 -60.56 0.750047 29.981
5.40000000 0.752885 27.633 0.651613 -60.94 0.651613 -60.94 0.752947 29.623
5.45000000 0.755735 27.251 0.648329 -61.31 0.648329 -61.31 0.755799 29.267
5.50000000 0.758539 26.871 0.645069 -61.68 0.645069 -61.68 0.758606 28.915
5.55000000 0.761297 26.494 0.641834 -62.04 0.641834 -62.04 0.761367 28.565
5.60000000 0.764010 26.119 0.638625 -62.41 0.638625 -62.41 0.764083 28.217
5.65000000 0.766679 25.746 0.635440 -62.77 0.635440 -62.77 0.766755 27.872
5.70000000 0.769305 25.376 0.632281 -63.12 0.632281 -63.12 0.769383 27.530
5.75000000 0.771888 25.008 0.629147 -63.48 0.629147 -63.48 0.771970 27.190
5.80000000 0.774430 24.642 0.626038 -63.83 0.626038 -63.83 0.774514 26.852
5.85000000 0.776930 24.278 0.622954 -64.19 0.622954 -64.19 0.777018 26.517
5.90000000 0.779390 23.916 0.619895 -64.54 0.619895 -64.54 0.779481 26.184
5.95000000 0.781811 23.556 0.616861 -64.88 0.616861 -64.88 0.781905 25.854
6.00000000 0.784192 23.199 0.613852 -65.23 0.613852 -65.23 0.784290 25.526
6.05000000 0.786535 22.843 0.610868 -65.57 0.610868 -65.57 0.786636 25.200
6.10000000 0.788841 22.489 0.607909 -65.91 0.607909 -65.91 0.788945 24.876
6.15000000 0.791109 22.137 0.604975 -66.25 0.604975 -66.25 0.791217 24.554
6.20000000 0.793341 21.787 0.602065 -66.59 0.602065 -66.59 0.793453 24.235
6.25000000 0.795538 21.439 0.599180 -66.92 0.599180 -66.92 0.795653 23.918
6.30000000 0.797699 21.092 0.596320 -67.25 0.596320 -67.25 0.797819 23.603
6.35000000 0.799826 20.748 0.593484 -67.58 0.593484 -67.58 0.799949 23.290
6.40000000 0.801919 20.405 0.590672 -67.91 0.590672 -67.91 0.802046 22.979
6.45000000 0.803979 20.064 0.587885 -68.24 0.587885 -68.24 0.804110 22.670
6.50000000 0.806005 19.724 0.585122 -68.56 0.585122 -68.56 0.806141 22.364
6.55000000 0.808000 19.386 0.582383 -68.89 0.582383 -68.89 0.808140 22.059
6.60000000 0.809963 19.050 0.579668 -69.21 0.579668 -69.21 0.810108 21.756
6.65000000 0.811895 18.715 0.576977 -69.53 0.576977 -69.53 0.812044 21.455
6.70000000 0.813797 18.382 0.574309 -69.84 0.574309 -69.84 0.813950 21.156
6.75000000 0.815669 18.051 0.571665 -70.16 0.571665 -70.16 0.815826 20.859
6.80000000 0.817511 17.720 0.569045 -70.48 0.569045 -70.48 0.817673 20.563
6.85000000 0.819324 17.392 0.566448 -70.79 0.566448 -70.79 0.819491 20.270
6.90000000 0.821108 17.064 0.563875 -71.10 0.563875 -71.10 0.821280 19.978
6.95000000 0.822865 16.738 0.561324 -71.41 0.561324 -71.41 0.823042 19.688
7.00000000 0.824594 16.414 0.558797 -71.72 0.558797 -71.72 0.824776 19.400
7.05000000 0.826296 16.091 0.556292 -72.02 0.556292 -72.02 0.826483 19.113
7.10000000 0.827971 15.769 0.553811 -72.33 0.553811 -72.33 0.828164 18.829
7.15000000 0.829620 15.448 0.551352 -72.63 0.551352 -72.63 0.829818 18.545
7.20000000 0.831244 15.129 0.548915 -72.93 0.548915 -72.93 0.831447 18.264
7.25000000 0.832842 14.810 0.546501 -73.23 0.546501 -73.23 0.833051 17.984
7.30000000 0.834415 14.493 0.544109 -73.53 0.544109 -73.53 0.834630 17.706
7.35000000 0.835964 14.177 0.541739 -73.83 0.541739 -73.83 0.836184 17.429
7.40000000 0.837489 13.863 0.539391 -74.13 0.539391 -74.13 0.837715 17.154
7.45000000 0.838990 13.549 0.537066 -74.42 0.537066 -74.42 0.839222 16.880
7.50000000 0.840468 13.236 0.534761 -74.72 0.534761 -74.72 0.840706 16.608
7.55000000 0.841922 12.925 0.532479 -75.01 0.532479 -75.01 0.842167 16.337
7.60000000 0.843355 12.614 0.530218 -75.30 0.530218 -75.30 0.843606 16.068
7.65000000 0.844765 12.305 0.527978 -75.59 0.527978 -75.59 0.845023 15.800
7.70000000 0.846154 11.996 0.525760 -75.88 0.525760 -75.88 0.846418 15.534
7.75000000 0.847521 11.688 0.523562 -76.17 0.523562 -76.17 0.847792 15.269
7.80000000 0.848867 11.381 0.521386 -76.46 0.521386 -76.46 0.849145 15.005
7.85000000 0.850192 11.075 0.519230 -76.74 0.519230 -76.74 0.850477 14.743
7.90000000 0.851497 10.770 0.517095 -77.03 0.517095 -77.03 0.851789 14.482
7.95000000 0.852781 10.466 0.514981 -77.31 0.514981 -77.31 0.853081 14.223
8.00000000 0.854046 10.162 0.512887 -77.59 0.512887 -77.59 0.854353 13.964
8.05000000 0.855292 9.8596 0.510813 -77.87 0.510813 -77.87 0.855606 13.707
8.10000000 0.856518 9.5576 0.508759 -78.15 0.508759 -78.15 0.856840 13.452
8.15000000 0.857725 9.2562 0.506726 -78.43 0.506726 -78.43 0.858055 13.197
8.20000000 0.858914 8.9556 0.504712 -78.71 0.504712 -78.71 0.859252 12.944
8.25000000 0.860085 8.6556 0.502719 -78.99 0.502719 -78.99 0.860431 12.692
8.30000000 0.861237 8.3563 0.500745 -79.27 0.500745 -79.27 0.861592 12.441
8.35000000 0.862372 8.0575 0.498790 -79.54 0.498790 -79.54 0.862735 12.191
8.40000000 0.863490 7.7594 0.496855 -79.82 0.496855 -79.82 0.863861 11.943
8.45000000 0.864590 7.4618 0.494939 -80.09 0.494939 -80.09 0.864970 11.695
8.50000000 0.865673 7.1647 0.493043 -80.36 0.493043 -80.36 0.866062 11.449
8.55000000 0.866740 6.8681 0.491165 -80.64 0.491165 -80.64 0.867138 11.204
8.60000000 0.867790 6.5720 0.489307 -80.91 0.489307 -80.91 0.868198 10.960
8.65000000 0.868824 6.2763 0.487467 -81.18 0.487467 -81.18 0.869241 10.717
8.70000000 0.869842 5.9811 0.485646 -81.45 0.485646 -81.45 0.870269 10.475
8.75000000 0.870845 5.6863 0.483844 -81.72 0.483844 -81.72 0.871281 10.234
8.80000000 0.871831 5.3918 0.482060 -81.99 0.482060 -81.99 0.872278 9.9937
8.85000000 0.872803 5.0977 0.480294 -82.25 0.480294 -82.25 0.873259 9.7548
8.90000000 0.873760 4.8039 0.478547 -82.52 0.478547 -82.52 0.874226 9.5168
8.95000000 0.874701 4.5104 0.476818 -82.79 0.476818 -82.79 0.875178 9.2798
9.00000000 0.875628 4.2172 0.475107 -83.05 0.475107 -83.05 0.876116 9.0438
9.05000000 0.876541 3.9243 0.473414 -83.32 0.473414 -83.32 0.877040 8.8087
9.10000000 0.877440 3.6315 0.471739 -83.58 0.471739 -83.58 0.877949 8.5745
9.15000000 0.878324 3.3390 0.470082 -83.85 0.470082 -83.85 0.878845 8.3412
9.20000000 0.879195 3.0466 0.468442 -84.11 0.468442 -84.11 0.879727 8.1088
9.25000000 0.880052 2.7544 0.466821 -84.38 0.466821 -84.38 0.880596 7.8774
9.30000000 0.880895 2.4623 0.465216 -84.64 0.465216 -84.64 0.881451 7.6467
9.35000000 0.881725 2.1703 0.463629 -84.90 0.463629 -84.90 0.882293 7.4170
9.40000000 0.882542 1.8784 0.462059 -85.16 0.462059 -85.16 0.883123 7.1880
9.45000000 0.883346 1.5865 0.460507 -85.42 0.460507 -85.42 0.883940 6.9600
9.50000000 0.884138 1.2947 0.458971 -85.69 0.458971 -85.69 0.884744 6.7327
9.55000000 0.884916 1.0028 0.457453 -85.95 0.457453 -85.95 0.885536 6.5062
9.60000000 0.885683 0.7109 0.455952 -86.21 0.455952 -86.21 0.886315 6.2805
9.65000000 0.886437 0.4190 0.454467 -86.47 0.454467 -86.47 0.887083 6.0556
9.70000000 0.887179 0.1270 0.452999 -86.73 0.452999 -86.73 0.887838 5.8314
9.75000000 0.887908 -0.165 0.451548 -86.99 0.451548 -86.99 0.888582 5.6080
9.80000000 0.888626 -0.457 0.450114 -87.25 0.450114 -87.25 0.889315 5.3853
9.85000000 0.889333 -0.750 0.448696 -87.50 0.448696 -87.50 0.890036 5.1634
9.90000000 0.890027 -1.042 0.447295 -87.76 0.447295 -87.76 0.890745 4.9421
9.95000000 0.890711 -1.335 0.445911 -88.02 0.445911 -88.02 0.891444 4.7216
10.0000000 0.891383 -1.628 0.444542 -88.28 0.444542 -88.28 0.892131 4.5017
