# GHZ S MA R 50.00000
0.10000000	0.031169	84.457	0.997582	-1.987	0.997582	-1.987	0.031168	84.480
0.15000000	0.046135	84.085	0.996552	-2.947	0.996552	-2.947	0.046134	84.119
0.20000000	0.060984	83.487	0.995373	-3.901	0.995373	-3.901	0.060983	83.533
0.25000000	0.075737	82.783	0.994025	-4.850	0.994025	-4.850	0.075736	82.842
0.30000000	0.090399	82.021	0.992499	-5.795	0.992499	-5.795	0.090397	82.091
0.35000000	0.104969	81.222	0.990791	-6.735	0.990791	-6.735	0.104966	81.304
0.40000000	0.119443	80.400	0.988899	-7.672	0.988899	-7.672	0.119440	80.494
0.45000000	0.133819	79.562	0.986823	-8.604	0.986823	-8.604	0.133815	79.668
0.50000000	0.148089	78.714	0.984566	-9.532	0.984566	-9.532	0.148085	78.832
0.55000000	0.162249	77.858	0.982130	-10.460	0.982130	-10.460	0.162244	77.988
0.60000000	0.176292	76.999	0.979518	-11.370	0.979518	-11.370	0.176286	77.141
0.65000000	0.190212	76.137	0.976733	-12.290	0.976733	-12.290	0.190206	76.291
0.70000000	0.204004	75.274	0.973780	-13.200	0.973780	-13.200	0.203997	75.440
0.75000000	0.217661	74.412	0.970663	-14.100	0.970663	-14.100	0.217653	74.590
0.80000000	0.231178	73.551	0.967387	-15.000	0.967387	-15.000	0.231170	73.741
0.85000000	0.244550	72.692	0.963956	-15.890	0.963956	-15.890	0.244541	72.894
0.90000000	0.257772	71.836	0.960377	-16.770	0.960377	-16.770	0.257762	72.051
0.95000000	0.270838	70.984	0.956654	-17.650	0.956654	-17.650	0.270828	71.211
1.00000000	0.283745	70.136	0.952793	-18.520	0.952793	-18.520	0.283734	70.375
1.05000000	0.296489	69.293	0.948801	-19.390	0.948801	-19.390	0.296476	69.543
1.10000000	0.309064	68.454	0.944681	-20.250	0.944681	-20.250	0.309052	68.717
1.15000000	0.321469	67.621	0.940442	-21.100	0.940442	-21.100	0.321456	67.896
1.20000000	0.333701	66.794	0.936088	-21.940	0.936088	-21.940	0.333686	67.081
1.25000000	0.345755	65.972	0.931626	-22.780	0.931626	-22.780	0.345740	66.272
1.30000000	0.357630	65.157	0.927061	-23.610	0.927061	-23.610	0.357615	65.469
1.35000000	0.369324	64.348	0.922400	-24.430	0.922400	-24.430	0.369308	64.672
1.40000000	0.380836	63.545	0.917648	-25.250	0.917648	-25.250	0.380818	63.882
1.45000000	0.392163	62.750	0.912811	-26.050	0.912811	-26.050	0.392145	63.099
1.50000000	0.403304	61.961	0.907895	-26.850	0.907895	-26.850	0.403285	62.323
1.55000000	0.414259	61.180	0.902906	-27.640	0.902906	-27.640	0.414240	61.554
1.60000000	0.425027	60.405	0.897849	-28.430	0.897849	-28.430	0.425007	60.792
1.65000000	0.435608	59.638	0.892730	-29.200	0.892730	-29.200	0.435588	60.038
1.70000000	0.446002	58.879	0.887555	-29.970	0.887555	-29.970	0.445981	59.291
1.75000000	0.456210	58.127	0.882328	-30.730	0.882328	-30.730	0.456188	58.552
1.80000000	0.466230	57.382	0.877054	-31.480	0.877054	-31.480	0.466208	57.820
1.85000000	0.476065	56.646	0.871739	-32.220	0.871739	-32.220	0.476042	57.096
1.90000000	0.485716	55.916	0.866388	-32.960	0.866388	-32.960	0.485692	56.380
1.95000000	0.495182	55.195	0.861005	-33.680	0.861005	-33.680	0.495158	55.671
2.00000000	0.504466	54.481	0.855594	-34.400	0.855594	-34.400	0.504442	54.970
2.05000000	0.513569	53.775	0.850161	-35.110	0.850161	-35.110	0.513544	54.277
2.10000000	0.522493	53.076	0.844709	-35.810	0.844709	-35.810	0.522468	53.592
2.15000000	0.531239	52.385	0.839242	-36.510	0.839242	-36.510	0.531214	52.914
2.20000000	0.539810	51.702	0.833765	-37.190	0.833765	-37.190	0.539784	52.244
2.25000000	0.548207	51.027	0.828281	-37.870	0.828281	-37.870	0.548180	51.582
2.30000000	0.556432	50.359	0.822793	-38.540	0.822793	-38.540	0.556405	50.927
2.35000000	0.564488	49.699	0.817305	-39.200	0.817305	-39.200	0.564461	50.280
2.40000000	0.572377	49.046	0.811820	-39.860	0.811820	-39.860	0.572350	49.641
2.45000000	0.580102	48.400	0.806342	-40.500	0.806342	-40.500	0.580074	49.009
2.50000000	0.587664	47.762	0.800873	-41.140	0.800873	-41.140	0.587636	48.385
2.55000000	0.595066	47.132	0.795416	-41.770	0.795416	-41.770	0.595038	47.768
2.60000000	0.602312	46.509	0.789974	-42.400	0.789974	-42.400	0.602283	47.158
2.65000000	0.609402	45.892	0.784549	-43.010	0.784549	-43.010	0.609374	46.556
2.70000000	0.616341	45.284	0.779143	-43.620	0.779143	-43.620	0.616312	45.961
2.75000000	0.623131	44.682	0.773760	-44.230	0.773760	-44.230	0.623102	45.373
2.80000000	0.629774	44.087	0.768400	-44.820	0.768400	-44.820	0.629745	44.793
2.85000000	0.636274	43.499	0.763066	-45.410	0.763066	-45.410	0.636244	44.219
2.90000000	0.642632	42.918	0.757760	-45.990	0.757760	-45.990	0.642603	43.652
2.95000000	0.648851	42.344	0.752484	-46.560	0.752484	-46.560	0.648822	43.092
3.00000000	0.654935	41.776	0.747238	-47.130	0.747238	-47.130	0.654906	42.539
3.05000000	0.660886	41.215	0.742025	-47.690	0.742025	-47.690	0.660857	41.992
3.10000000	0.666707	40.660	0.736846	-48.240	0.736846	-48.240	0.666678	41.452
3.15000000	0.672400	40.112	0.731702	-48.790	0.731702	-48.790	0.672371	40.919
3.20000000	0.677968	39.571	0.726594	-49.330	0.726594	-49.330	0.677939	40.392
3.25000000	0.683413	39.035	0.721524	-49.860	0.721524	-49.860	0.683385	39.871
3.30000000	0.688739	38.506	0.716493	-50.390	0.716493	-50.390	0.688711	39.357
3.35000000	0.693947	37.982	0.711500	-50.910	0.711500	-50.910	0.693920	38.848
3.40000000	0.699041	37.465	0.706548	-51.420	0.706548	-51.420	0.699014	38.346
3.45000000	0.704023	36.953	0.701638	-51.930	0.701638	-51.930	0.703996	37.850
3.50000000	0.708895	36.447	0.696768	-52.440	0.696768	-52.440	0.708868	37.359
3.55000000	0.713659	35.947	0.691941	-52.930	0.691941	-52.930	0.713633	36.875
3.60000000	0.718319	35.453	0.687157	-53.420	0.687157	-53.420	0.718293	36.396
3.65000000	0.722876	34.964	0.682416	-53.910	0.682416	-53.910	0.722851	35.922
3.70000000	0.727334	34.480	0.677719	-54.390	0.677719	-54.390	0.727309	35.455
3.75000000	0.731693	34.002	0.673066	-54.870	0.673066	-54.870	0.731669	34.992
3.80000000	0.735957	33.529	0.668458	-55.330	0.668458	-55.330	0.735933	34.535
3.85000000	0.740127	33.061	0.663894	-55.800	0.663894	-55.800	0.740104	34.083
3.90000000	0.744206	32.598	0.659375	-56.260	0.659375	-56.260	0.744184	33.637
3.95000000	0.748196	32.140	0.654901	-56.710	0.654901	-56.710	0.748175	33.195
4.00000000	0.752099	31.687	0.650472	-57.160	0.650472	-57.160	0.752079	32.759
4.05000000	0.755917	31.239	0.646089	-57.600	0.646089	-57.600	0.755898	32.327
4.10000000	0.759652	30.795	0.641750	-58.040	0.641750	-58.040	0.759634	31.900
4.15000000	0.763306	30.356	0.637457	-58.480	0.637457	-58.480	0.763289	31.478
4.20000000	0.766881	29.921	0.633210	-58.910	0.633210	-58.910	0.766865	31.061
4.25000000	0.770379	29.491	0.629007	-59.330	0.629007	-59.330	0.770363	30.648
4.30000000	0.773801	29.066	0.624850	-59.750	0.624850	-59.750	0.773787	30.239
4.35000000	0.777150	28.644	0.620738	-60.170	0.620738	-60.170	0.777136	29.835
4.40000000	0.780426	28.227	0.616671	-60.580	0.616671	-60.580	0.780414	29.436
4.45000000	0.783633	27.814	0.612648	-60.990	0.612648	-60.990	0.783622	29.041
4.50000000	0.786771	27.405	0.608670	-61.390	0.608670	-61.390	0.786761	28.649
4.55000000	0.789842	27.000	0.604737	-61.790	0.604737	-61.790	0.789834	28.262
4.60000000	0.792848	26.599	0.600847	-62.190	0.600847	-62.190	0.792841	27.879
4.65000000	0.795790	26.202	0.597002	-62.580	0.597002	-62.580	0.795784	27.500
4.70000000	0.798670	25.808	0.593200	-62.970	0.593200	-62.970	0.798666	27.125
4.75000000	0.801489	25.418	0.589441	-63.350	0.589441	-63.350	0.801486	26.754
4.80000000	0.804249	25.032	0.585726	-63.730	0.585726	-63.730	0.804248	26.387
4.85000000	0.806950	24.649	0.582054	-64.110	0.582054	-64.110	0.806951	26.023
4.90000000	0.809596	24.270	0.578424	-64.480	0.578424	-64.480	0.809598	25.663
4.95000000	0.812186	23.894	0.574836	-64.850	0.574836	-64.850	0.812190	25.306
5.00000000	0.814722	23.522	0.571290	-65.220	0.571290	-65.220	0.814728	24.953
5.05000000	0.817206	23.152	0.567786	-65.580	0.567786	-65.580	0.817213	24.603
5.10000000	0.819638	22.786	0.564323	-65.940	0.564323	-65.940	0.819647	24.257
5.15000000	0.822020	22.423	0.560901	-66.300	0.560901	-66.300	0.822031	23.914
5.20000000	0.824353	22.063	0.557520	-66.650	0.557520	-66.650	0.824366	23.574
5.25000000	0.826638	21.706	0.554179	-67.000	0.554179	-67.000	0.826653	23.237
5.30000000	0.828876	21.352	0.550877	-67.340	0.550877	-67.340	0.828894	22.904
5.35000000	0.831068	21.001	0.547615	-67.690	0.547615	-67.690	0.831088	22.574
5.40000000	0.833216	20.653	0.544393	-68.030	0.544393	-68.030	0.833239	22.246
5.45000000	0.835321	20.308	0.541209	-68.370	0.541209	-68.370	0.835345	21.922
5.50000000	0.837383	19.965	0.538063	-68.700	0.538063	-68.700	0.837410	21.600
5.55000000	0.839403	19.625	0.534955	-69.030	0.534955	-69.030	0.839432	21.282
5.60000000	0.841382	19.287	0.531886	-69.360	0.531886	-69.360	0.841414	20.966
5.65000000	0.843322	18.952	0.528853	-69.690	0.528853	-69.690	0.843357	20.653
5.70000000	0.845223	18.620	0.525857	-70.010	0.525857	-70.010	0.845260	20.342
5.75000000	0.847086	18.290	0.522898	-70.340	0.522898	-70.340	0.847126	20.035
5.80000000	0.848912	17.962	0.519975	-70.650	0.519975	-70.650	0.848955	19.729
5.85000000	0.850702	17.637	0.517088	-70.970	0.517088	-70.970	0.850747	19.427
5.90000000	0.852456	17.314	0.514237	-71.290	0.514237	-71.290	0.852505	19.127
5.95000000	0.854176	16.993	0.511420	-71.600	0.511420	-71.600	0.854227	18.829
6.00000000	0.855862	16.674	0.508638	-71.910	0.508638	-71.910	0.855916	18.534
6.05000000	0.857514	16.358	0.505891	-72.210	0.505891	-72.210	0.857572	18.241
6.10000000	0.859135	16.043	0.503178	-72.520	0.503178	-72.520	0.859195	17.951
6.15000000	0.860723	15.731	0.500498	-72.820	0.500498	-72.820	0.860787	17.662
6.20000000	0.862281	15.421	0.497852	-73.120	0.497852	-73.120	0.862348	17.376
6.25000000	0.863808	15.112	0.495238	-73.420	0.495238	-73.420	0.863879	17.092
6.30000000	0.865306	14.806	0.492657	-73.720	0.492657	-73.720	0.865380	16.811
6.35000000	0.866774	14.501	0.490109	-74.010	0.490109	-74.010	0.866852	16.531
6.40000000	0.868215	14.198	0.487592	-74.310	0.487592	-74.310	0.868296	16.254
6.45000000	0.869627	13.897	0.485107	-74.600	0.485107	-74.600	0.869712	15.979
6.50000000	0.871012	13.598	0.482653	-74.880	0.482653	-74.880	0.871101	15.705
6.55000000	0.872371	13.300	0.480230	-75.170	0.480230	-75.170	0.872464	15.434
6.60000000	0.873704	13.004	0.477838	-75.460	0.477838	-75.460	0.873800	15.164
6.65000000	0.875011	12.710	0.475476	-75.740	0.475476	-75.740	0.875112	14.897
6.70000000	0.876293	12.417	0.473144	-76.020	0.473144	-76.020	0.876398	14.631
6.75000000	0.877551	12.126	0.470842	-76.300	0.470842	-76.300	0.877660	14.367
6.80000000	0.878784	11.837	0.468568	-76.580	0.468568	-76.580	0.878898	14.105
6.85000000	0.879995	11.548	0.466324	-76.860	0.466324	-76.860	0.880112	13.844
6.90000000	0.881182	11.262	0.464109	-77.130	0.464109	-77.130	0.881304	13.586
6.95000000	0.882347	10.976	0.461922	-77.410	0.461922	-77.410	0.882474	13.329
7.00000000	0.883489	10.692	0.459764	-77.680	0.459764	-77.680	0.883621	13.073
7.05000000	0.884610	10.409	0.457633	-77.950	0.457633	-77.950	0.884747	12.820
7.10000000	0.885710	10.128	0.455529	-78.220	0.455529	-78.220	0.885852	12.568
7.15000000	0.886789	9.848	0.453453	-78.490	0.453453	-78.490	0.886936	12.317
7.20000000	0.887848	9.569	0.451405	-78.750	0.451405	-78.750	0.888000	12.068
7.25000000	0.888887	9.291	0.449382	-79.020	0.449382	-79.020	0.889044	11.821
7.30000000	0.889906	9.014	0.447387	-79.280	0.447387	-79.280	0.890068	11.575
7.35000000	0.890906	8.739	0.445417	-79.540	0.445417	-79.540	0.891074	11.330
7.40000000	0.891887	8.464	0.443473	-79.800	0.443473	-79.800	0.892060	11.087
7.45000000	0.892850	8.191	0.441556	-80.060	0.441556	-80.060	0.893029	10.845
7.50000000	0.893794	7.919	0.439663	-80.320	0.439663	-80.320	0.893979	10.605
7.55000000	0.894721	7.647	0.437796	-80.580	0.437796	-80.580	0.894912	10.366
7.60000000	0.895630	7.377	0.435954	-80.840	0.435954	-80.840	0.895827	10.128
7.65000000	0.896522	7.107	0.434136	-81.090	0.434136	-81.090	0.896725	9.892
7.70000000	0.897398	6.839	0.432343	-81.350	0.432343	-81.350	0.897607	9.657
7.75000000	0.898257	6.571	0.430574	-81.600	0.430574	-81.600	0.898472	9.423
7.80000000	0.899099	6.304	0.428830	-81.850	0.428830	-81.850	0.899321	9.190
7.85000000	0.899926	6.038	0.427109	-82.100	0.427109	-82.100	0.900154	8.959
7.90000000	0.900737	5.772	0.425411	-82.350	0.425411	-82.350	0.900972	8.729
7.95000000	0.901532	5.508	0.423738	-82.600	0.423738	-82.600	0.901775	8.500
8.00000000	0.902313	5.244	0.422087	-82.850	0.422087	-82.850	0.902562	8.272
8.05000000	0.903078	4.981	0.420459	-83.100	0.420459	-83.100	0.903335	8.045
8.10000000	0.903829	4.718	0.418854	-83.340	0.418854	-83.340	0.904093	7.819
8.15000000	0.904566	4.456	0.417272	-83.590	0.417272	-83.590	0.904837	7.594
8.20000000	0.905289	4.195	0.415712	-83.840	0.415712	-83.840	0.905567	7.370
8.25000000	0.905997	3.934	0.414175	-84.080	0.414175	-84.080	0.906284	7.148
8.30000000	0.906692	3.674	0.412659	-84.320	0.412659	-84.320	0.906987	6.926
8.35000000	0.907374	3.414	0.411166	-84.570	0.411166	-84.570	0.907677	6.705
8.40000000	0.908042	3.155	0.409694	-84.810	0.409694	-84.810	0.908353	6.485
8.45000000	0.908698	2.896	0.408243	-85.050	0.408243	-85.050	0.909017	6.266
8.50000000	0.909340	2.638	0.406814	-85.290	0.406814	-85.290	0.909668	6.049
8.55000000	0.909970	2.380	0.405407	-85.530	0.405407	-85.530	0.910307	5.831
8.60000000	0.910588	2.123	0.404020	-85.770	0.404020	-85.770	0.910933	5.615
8.65000000	0.911193	1.865	0.402654	-86.010	0.402654	-86.010	0.911547	5.400
8.70000000	0.911786	1.609	0.401309	-86.240	0.401309	-86.240	0.912150	5.186
8.75000000	0.912368	1.352	0.399985	-86.480	0.399985	-86.480	0.912740	4.972
8.80000000	0.912937	1.096	0.398681	-86.720	0.398681	-86.720	0.913320	4.759
8.85000000	0.913495	0.840	0.397397	-86.960	0.397397	-86.960	0.913888	4.547
8.90000000	0.914042	0.584	0.396134	-87.190	0.396134	-87.190	0.914444	4.336
8.95000000	0.914578	0.329	0.394890	-87.430	0.394890	-87.430	0.914990	4.125
9.00000000	0.915102	0.073	0.393667	-87.660	0.393667	-87.660	0.915525	3.915
9.05000000	0.915615	-0.182	0.392464	-87.900	0.392464	-87.900	0.916049	3.706
9.10000000	0.916118	-0.437	0.391280	-88.130	0.391280	-88.130	0.916562	3.498
9.15000000	0.916610	-0.692	0.390116	-88.370	0.390116	-88.370	0.917065	3.290
9.20000000	0.917092	-0.947	0.388971	-88.600	0.388971	-88.600	0.917558	3.083
9.25000000	0.917563	-1.202	0.387846	-88.830	0.387846	-88.830	0.918041	2.877
9.30000000	0.918024	-1.456	0.386740	-89.070	0.386740	-89.070	0.918513	2.671
9.35000000	0.918475	-1.711	0.385653	-89.300	0.385653	-89.300	0.918976	2.466
9.40000000	0.918916	-1.966	0.384585	-89.530	0.384585	-89.530	0.919429	2.261
9.45000000	0.919347	-2.221	0.383537	-89.760	0.383537	-89.760	0.919872	2.057
9.50000000	0.919768	-2.476	0.382507	-89.990	0.382507	-89.990	0.920306	1.854
9.55000000	0.920179	-2.731	0.381496	-90.230	0.381496	-90.230	0.920730	1.651
9.60000000	0.920581	-2.986	0.380504	-90.460	0.380504	-90.460	0.921145	1.449
9.65000000	0.920974	-3.242	0.379531	-90.690	0.379531	-90.690	0.921551	1.247
9.70000000	0.921357	-3.497	0.378576	-90.920	0.378576	-90.920	0.921948	1.046
9.75000000	0.921730	-3.753	0.377640	-91.150	0.377640	-91.150	0.922335	0.845
9.80000000	0.922095	-4.009	0.376723	-91.380	0.376723	-91.380	0.922714	0.645
9.85000000	0.922450	-4.266	0.375823	-91.610	0.375823	-91.610	0.923084	0.445
9.90000000	0.922797	-4.522	0.374943	-91.840	0.374943	-91.840	0.923445	0.246
9.95000000	0.923134	-4.779	0.374080	-92.070	0.374080	-92.070	0.923797	0.047
10.00000000	0.923463	-5.036	0.373236	-92.310	0.373236	-92.310	0.924141	-0.152
