# GHZ S MA R 50.00000
0.10000000 0.019687 85.917 0.998863 -1.345 0.998863 -1.345 0.019687 85.946
0.15000000 0.029233 85.698 0.998399 -2.001 0.998399 -2.001 0.029233 85.742
0.20000000 0.038730 85.311 0.997879 -2.654 0.997879 -2.654 0.038730 85.370
0.25000000 0.048190 84.843 0.997294 -3.305 0.997294 -3.305 0.048189 84.918
0.30000000 0.057616 84.330 0.996637 -3.955 0.996637 -3.955 0.057615 84.420
0.35000000 0.067012 83.788 0.995906 -4.603 0.995906 -4.603 0.067011 83.892
0.40000000 0.076377 83.226 0.995098 -5.250 0.995098 -5.250 0.076376 83.346
0.45000000 0.085711 82.650 0.994212 -5.896 0.994212 -5.896 0.085710 82.785
0.50000000 0.095014 82.064 0.993249 -6.540 0.993249 -6.540 0.095013 82.214
0.55000000 0.104284 81.471 0.992207 -7.183 0.992207 -7.183 0.104283 81.636
0.60000000 0.113520 80.872 0.991087 -7.824 0.991087 -7.824 0.113518 81.053
0.65000000 0.122720 80.270 0.989890 -8.464 0.989890 -8.464 0.122718 80.465
0.70000000 0.131883 79.663 0.988615 -9.103 0.988615 -9.103 0.131881 79.874
0.75000000 0.141007 79.055 0.987263 -9.739 0.987263 -9.739 0.141004 79.281
0.80000000 0.150089 78.445 0.985836 -10.37 0.985836 -10.37 0.150086 78.686
0.85000000 0.159129 77.834 0.984333 -11.01 0.984333 -11.01 0.159126 78.090
0.90000000 0.168125 77.222 0.982756 -11.64 0.982756 -11.64 0.168122 77.494
0.95000000 0.177075 76.610 0.981105 -12.27 0.981105 -12.27 0.177071 76.897
1.00000000 0.185976 75.997 0.979383 -12.90 0.979383 -12.90 0.185973 76.300
1.05000000 0.194829 75.386 0.977589 -13.52 0.977589 -13.52 0.194825 75.704
1.10000000 0.203630 74.774 0.975725 -14.15 0.975725 -14.15 0.203626 75.108
1.15000000 0.212379 74.164 0.973792 -14.77 0.973792 -14.77 0.212374 74.513
1.20000000 0.221073 73.554 0.971792 -15.39 0.971792 -15.39 0.221068 73.919
1.25000000 0.229711 72.945 0.969725 -16.01 0.969725 -16.01 0.229706 73.326
1.30000000 0.238292 72.338 0.967593 -16.62 0.967593 -16.62 0.238287 72.734
1.35000000 0.246815 71.732 0.965398 -17.24 0.965398 -17.24 0.246810 72.144
1.40000000 0.255277 71.128 0.963140 -17.85 0.963140 -17.85 0.255272 71.556
1.45000000 0.263678 70.526 0.960822 -18.45 0.960822 -18.45 0.263673 70.969
1.50000000 0.272017 69.925 0.958445 -19.06 0.958445 -19.06 0.272011 70.384
1.55000000 0.280291 69.326 0.956010 -19.66 0.956010 -19.66 0.280286 69.801
1.60000000 0.288501 68.729 0.953518 -20.26 0.953518 -20.26 0.288495 69.220
1.65000000 0.296644 68.134 0.950972 -20.86 0.950972 -20.86 0.296638 68.642
1.70000000 0.304721 67.541 0.948372 -21.46 0.948372 -21.46 0.304715 68.065
1.75000000 0.312729 66.951 0.945721 -22.05 0.945721 -22.05 0.312723 67.491
1.80000000 0.320668 66.363 0.943019 -22.64 0.943019 -22.64 0.320662 66.919
1.85000000 0.328538 65.777 0.940269 -23.23 0.940269 -23.23 0.328532 66.350
1.90000000 0.336337 65.194 0.937472 -23.81 0.937472 -23.81 0.336331 65.783
1.95000000 0.344064 64.613 0.934630 -24.39 0.934630 -24.39 0.344058 65.218
2.00000000 0.351720 64.035 0.931743 -24.97 0.931743 -24.97 0.351713 64.657
2.05000000 0.359303 63.459 0.928815 -25.55 0.928815 -25.55 0.359296 64.097
2.10000000 0.366812 62.886 0.925845 -26.12 0.925845 -26.12 0.366806 63.541
2.15000000 0.374248 62.315 0.922837 -26.69 0.922837 -26.69 0.374242 62.988
2.20000000 0.381610 61.748 0.919790 -27.26 0.919790 -27.26 0.381604 62.437
2.25000000 0.388897 61.183 0.916708 -27.82 0.916708 -27.82 0.388891 61.889
2.30000000 0.396109 60.621 0.913591 -28.38 0.913591 -28.38 0.396103 61.344
2.35000000 0.403246 60.061 0.910441 -28.94 0.910441 -28.94 0.403240 60.802
2.40000000 0.410307 59.505 0.907259 -29.49 0.907259 -29.49 0.410301 60.262
2.45000000 0.417293 58.951 0.904048 -30.04 0.904048 -30.04 0.417287 59.726
2.50000000 0.424202 58.401 0.900808 -30.59 0.900808 -30.59 0.424197 59.193
2.55000000 0.431036 57.853 0.897540 -31.13 0.897540 -31.13 0.431031 58.663
2.60000000 0.437794 57.308 0.894247 -31.68 0.894247 -31.68 0.437789 58.136
2.65000000 0.444475 56.767 0.890930 -32.21 0.890930 -32.21 0.444471 57.612
2.70000000 0.451081 56.228 0.887590 -32.75 0.887590 -32.75 0.451077 57.091
2.75000000 0.457611 55.692 0.884228 -33.28 0.884228 -33.28 0.457606 56.573
2.80000000 0.464064 55.159 0.880846 -33.81 0.880846 -33.81 0.464061 56.058
2.85000000 0.470442 54.629 0.877446 -34.34 0.877446 -34.34 0.470439 55.547
2.90000000 0.476745 54.102 0.874028 -34.86 0.874028 -34.86 0.476742 55.038
2.95000000 0.482972 53.579 0.870593 -35.38 0.870593 -35.38 0.482969 54.533
3.00000000 0.489124 53.058 0.867144 -35.89 0.867144 -35.89 0.489122 54.030
3.05000000 0.495201 52.540 0.863681 -36.41 0.863681 -36.41 0.495199 53.531
3.10000000 0.501204 52.026 0.860205 -36.92 0.860205 -36.92 0.501203 53.036
3.15000000 0.507132 51.514 0.856718 -37.42 0.856718 -37.42 0.507132 52.543
3.20000000 0.512987 51.005 0.853221 -37.93 0.853221 -37.93 0.512987 52.053
3.25000000 0.518768 50.500 0.849715 -38.43 0.849715 -38.43 0.518769 51.567
3.30000000 0.524477 49.997 0.846201 -38.92 0.846201 -38.92 0.524478 51.084
3.35000000 0.530112 49.498 0.842680 -39.42 0.842680 -39.42 0.530114 50.603
3.40000000 0.535676 49.001 0.839153 -39.91 0.839153 -39.91 0.535679 50.127
3.45000000 0.541168 48.508 0.835621 -40.40 0.835621 -40.40 0.541171 49.653
3.50000000 0.546589 48.017 0.832086 -40.88 0.832086 -40.88 0.546593 49.182
3.55000000 0.551939 47.530 0.828548 -41.36 0.828548 -41.36 0.551944 48.714
3.60000000 0.557220 47.045 0.825007 -41.84 0.825007 -41.84 0.557225 48.250
3.65000000 0.562431 46.563 0.821466 -42.31 0.821466 -42.31 0.562437 47.789
3.70000000 0.567573 46.085 0.817925 -42.79 0.817925 -42.79 0.567580 47.330
3.75000000 0.572646 45.609 0.814384 -43.26 0.814384 -43.26 0.572655 46.875
3.80000000 0.577652 45.136 0.810845 -43.72 0.810845 -43.72 0.577662 46.423
3.85000000 0.582591 44.666 0.807309 -44.18 0.807309 -44.18 0.582602 45.974
3.90000000 0.587464 44.199 0.803775 -44.64 0.803775 -44.64 0.587475 45.528
3.95000000 0.592270 43.734 0.800246 -45.10 0.800246 -45.10 0.592283 45.085
4.00000000 0.597012 43.273 0.796721 -45.55 0.796721 -45.55 0.597025 44.645
4.05000000 0.601689 42.814 0.793202 -46.01 0.793202 -46.01 0.601704 44.208
4.10000000 0.606302 42.358 0.789688 -46.45 0.789688 -46.45 0.606318 43.774
4.15000000 0.610852 41.905 0.786182 -46.90 0.786182 -46.90 0.610869 43.343
4.20000000 0.615339 41.455 0.782683 -47.34 0.782683 -47.34 0.615358 42.915
4.25000000 0.619765 41.008 0.779191 -47.78 0.779191 -47.78 0.619785 42.489
4.30000000 0.624129 40.563 0.775709 -48.22 0.775709 -48.22 0.624151 42.067
4.35000000 0.628433 40.120 0.772235 -48.65 0.772235 -48.65 0.628456 41.647
4.40000000 0.632677 39.681 0.768772 -49.08 0.768772 -49.08 0.632702 41.231
4.45000000 0.636863 39.244 0.765318 -49.51 0.765318 -49.51 0.636888 40.817
4.50000000 0.640989 38.810 0.761875 -49.93 0.761875 -49.93 0.641017 40.406
4.55000000 0.645059 38.378 0.758444 -50.36 0.758444 -50.36 0.645087 39.998
4.60000000 0.649071 37.949 0.755024 -50.78 0.755024 -50.78 0.649101 39.592
4.65000000 0.653026 37.522 0.751616 -51.19 0.751616 -51.19 0.653059 39.190
4.70000000 0.656927 37.098 0.748221 -51.61 0.748221 -51.61 0.656961 38.790
4.75000000 0.660772 36.677 0.744839 -52.02 0.744839 -52.02 0.660808 38.392
4.80000000 0.664563 36.258 0.741470 -52.43 0.741470 -52.43 0.664601 37.998
4.85000000 0.668301 35.841 0.738115 -52.83 0.738115 -52.83 0.668341 37.606
4.90000000 0.671986 35.427 0.734774 -53.24 0.734774 -53.24 0.672027 37.217
4.95000000 0.675619 35.015 0.731448 -53.64 0.731448 -53.64 0.675662 36.830
5.00000000 0.679200 34.605 0.728136 -54.04 0.728136 -54.04 0.679246 36.446
5.05000000 0.682730 34.198 0.724840 -54.44 0.724840 -54.44 0.682778 36.064
5.10000000 0.686211 33.793 0.721559 -54.83 0.721559 -54.83 0.686261 35.685
5.15000000 0.689642 33.390 0.718293 -55.22 0.718293 -55.22 0.689694 35.309
5.20000000 0.693024 32.990 0.715044 -55.61 0.715044 -55.61 0.693079 34.935
5.25000000 0.696359 32.592 0.711810 -56.00 0.711810 -56.00 0.696415 34.563
5.30000000 0.699645 32.196 0.708593 -56.38 0.708593 -56.38 0.699705 34.194
5.35000000 0.702885 31.802 0.705393 -56.76 0.705393 -56.76 0.702947 33.828
5.40000000 0.706079 31.410 0.702209 -57.14 0.702209 -57.14 0.706144 33.463
5.45000000 0.709228 31.021 0.699043 -57.52 0.699043 -57.52 0.709295 33.102
5.50000000 0.712331 30.633 0.695894 -57.90 0.695894 -57.90 0.712401 32.742
5.55000000 0.715391 30.248 0.692762 -58.27 0.692762 -58.27 0.715463 32.385
5.60000000 0.718407 29.864 0.689647 -58.64 0.689647 -58.64 0.718482 32.030
5.65000000 0.721380 29.483 0.686551 -59.01 0.686551 -59.01 0.721458 31.677
5.70000000 0.724310 29.103 0.683472 -59.38 0.683472 -59.38 0.724391 31.327
5.75000000 0.727199 28.726 0.680411 -59.74 0.680411 -59.74 0.727283 30.979
5.80000000 0.730047 28.350 0.677369 -60.10 0.677369 -60.10 0.730133 30.633
5.85000000 0.732854 27.976 0.674344 -60.47 0.674344 -60.47 0.732944 30.289
5.90000000 0.735621 27.604 0.671338 -60.82 0.671338 -60.82 0.735714 29.947
5.95000000 0.738349 27.234 0.668351 -61.18 0.668351 -61.18 0.738445 29.608
6.00000000 0.741038 26.866 0.665382 -61.54 0.665382 -61.54 0.741137 29.270
6.05000000 0.743688 26.500 0.662431 -61.89 0.662431 -61.89 0.743791 28.935
6.10000000 0.746301 26.135 0.659499 -62.24 0.659499 -62.24 0.746408 28.602
6.15000000 0.748877 25.772 0.656586 -62.59 0.656586 -62.59 0.748987 28.271
6.20000000 0.751417 25.411 0.653691 -62.93 0.653691 -62.93 0.751530 27.941
6.25000000 0.753920 25.051 0.650816 -63.28 0.650816 -63.28 0.754037 27.614
6.30000000 0.756388 24.693 0.647959 -63.62 0.647959 -63.62 0.756509 27.289
6.35000000 0.758820 24.337 0.645121 -63.96 0.645121 -63.96 0.758946 26.966
6.40000000 0.761219 23.982 0.642302 -64.30 0.642302 -64.30 0.761348 26.644
6.45000000 0.763583 23.629 0.639502 -64.64 0.639502 -64.64 0.763716 26.325
6.50000000 0.765914 23.277 0.636721 -64.98 0.636721 -64.98 0.766051 26.007
6.55000000 0.768212 22.927 0.633958 -65.31 0.633958 -65.31 0.768353 25.692
6.60000000 0.770477 22.578 0.631215 -65.64 0.631215 -65.64 0.770623 25.378
6.65000000 0.772711 22.231 0.628491 -65.98 0.628491 -65.98 0.772861 25.066
6.70000000 0.774913 21.885 0.625786 -66.31 0.625786 -66.31 0.775067 24.755
6.75000000 0.777084 21.540 0.623099 -66.63 0.623099 -66.63 0.777243 24.447
6.80000000 0.779224 21.197 0.620432 -66.96 0.620432 -66.96 0.779387 24.140
6.85000000 0.781334 20.855 0.617783 -67.28 0.617783 -67.28 0.781502 23.835
6.90000000 0.783414 20.515 0.615154 -67.61 0.615154 -67.61 0.783588 23.532
6.95000000 0.785466 20.176 0.612543 -67.93 0.612543 -67.93 0.785644 23.230
7.00000000 0.787488 19.838 0.609951 -68.25 0.609951 -68.25 0.787671 22.930
7.05000000 0.789482 19.501 0.607378 -68.57 0.607378 -68.57 0.789670 22.632
7.10000000 0.791448 19.166 0.604824 -68.89 0.604824 -68.89 0.791641 22.336
7.15000000 0.793387 18.832 0.602288 -69.20 0.602288 -69.20 0.793585 22.041
7.20000000 0.795298 18.498 0.599771 -69.52 0.599771 -69.52 0.795502 21.747
7.25000000 0.797182 18.167 0.597273 -69.83 0.597273 -69.83 0.797392 21.455
7.30000000 0.799041 17.836 0.594794 -70.14 0.594794 -70.14 0.799256 21.165
7.35000000 0.800873 17.506 0.592332 -70.45 0.592332 -70.45 0.801094 20.876
7.40000000 0.802680 17.177 0.589890 -70.76 0.589890 -70.76 0.802907 20.589
7.45000000 0.804461 16.850 0.587466 -71.07 0.587466 -71.07 0.804694 20.303
7.50000000 0.806218 16.523 0.585060 -71.38 0.585060 -71.38 0.806457 20.019
7.55000000 0.807950 16.197 0.582673 -71.68 0.582673 -71.68 0.808195 19.736
7.60000000 0.809658 15.873 0.580303 -71.99 0.580303 -71.99 0.809910 19.455
7.65000000 0.811343 15.549 0.577953 -72.29 0.577953 -72.29 0.811601 19.175
7.70000000 0.813004 15.226 0.575620 -72.59 0.575620 -72.59 0.813268 18.896
7.75000000 0.814642 14.904 0.573305 -72.89 0.573305 -72.89 0.814913 18.619
7.80000000 0.816257 14.583 0.571008 -73.19 0.571008 -73.19 0.816535 18.344
7.85000000 0.817850 14.263 0.568730 -73.49 0.568730 -73.49 0.818134 18.069
7.90000000 0.819420 13.944 0.566469 -73.79 0.566469 -73.79 0.819712 17.796
7.95000000 0.820969 13.625 0.564226 -74.09 0.564226 -74.09 0.821268 17.524
8.00000000 0.822497 13.307 0.562000 -74.38 0.562000 -74.38 0.822803 17.254
8.05000000 0.824003 12.990 0.559793 -74.68 0.559793 -74.68 0.824317 16.985
8.10000000 0.825489 12.674 0.557603 -74.97 0.557603 -74.97 0.825810 16.717
8.15000000 0.826954 12.358 0.555430 -75.26 0.555430 -75.26 0.827283 16.450
8.20000000 0.828399 12.043 0.553275 -75.55 0.553275 -75.55 0.828736 16.185
8.25000000 0.829824 11.729 0.551137 -75.84 0.551137 -75.84 0.830168 15.921
8.30000000 0.831229 11.415 0.549017 -76.13 0.549017 -76.13 0.831582 15.658
8.35000000 0.832614 11.102 0.546914 -76.42 0.546914 -76.42 0.832976 15.396
8.40000000 0.833981 10.790 0.544828 -76.71 0.544828 -76.71 0.834351 15.135
8.45000000 0.835329 10.478 0.542759 -77.00 0.542759 -77.00 0.835707 14.876
8.50000000 0.836658 10.166 0.540707 -77.28 0.540707 -77.28 0.837045 14.617
8.55000000 0.837969 9.8552 0.538672 -77.57 0.538672 -77.57 0.838365 14.360
8.60000000 0.839262 9.5447 0.536654 -77.85 0.536654 -77.85 0.839667 14.104
8.65000000 0.840537 9.2347 0.534652 -78.14 0.534652 -78.14 0.840951 13.849
8.70000000 0.841794 8.9251 0.532668 -78.42 0.532668 -78.42 0.842218 13.595
8.75000000 0.843034 8.6160 0.530700 -78.70 0.530700 -78.70 0.843468 13.343
8.80000000 0.844257 8.3072 0.528748 -78.98 0.528748 -78.98 0.844701 13.091
8.85000000 0.845463 7.9988 0.526813 -79.26 0.526813 -79.26 0.845917 12.840
8.90000000 0.846653 7.6907 0.524894 -79.54 0.524894 -79.54 0.847116 12.590
8.95000000 0.847826 7.3830 0.522992 -79.82 0.522992 -79.82 0.848299 12.342
9.00000000 0.848982 7.0756 0.521106 -80.10 0.521106 -80.10 0.849467 12.094
9.05000000 0.850123 6.7684 0.519236 -80.38 0.519236 -80.38 0.850618 11.848
9.10000000 0.851248 6.4614 0.517382 -80.66 0.517382 -80.66 0.851754 11.602
9.15000000 0.852358 6.1547 0.515544 -80.93 0.515544 -80.93 0.852875 11.357
9.20000000 0.853452 5.8482 0.513722 -81.21 0.513722 -81.21 0.853980 11.113
9.25000000 0.854531 5.5419 0.511916 -81.49 0.511916 -81.49 0.855071 10.871
9.30000000 0.855595 5.2357 0.510126 -81.76 0.510126 -81.76 0.856146 10.629
9.35000000 0.856644 4.9296 0.508352 -82.04 0.508352 -82.04 0.857207 10.388
9.40000000 0.857678 4.6237 0.506593 -82.31 0.506593 -82.31 0.858254 10.148
9.45000000 0.858699 4.3178 0.504850 -82.58 0.504850 -82.58 0.859287 9.9084
9.50000000 0.859705 4.0120 0.503122 -82.86 0.503122 -82.86 0.860305 9.6701
9.55000000 0.860697 3.7062 0.501410 -83.13 0.501410 -83.13 0.861310 9.4326
9.60000000 0.861675 3.4004 0.499713 -83.40 0.499713 -83.40 0.862301 9.1960
9.65000000 0.862639 3.0946 0.498032 -83.67 0.498032 -83.67 0.863279 8.9602
9.70000000 0.863590 2.7887 0.496366 -83.95 0.496366 -83.95 0.864243 8.7253
9.75000000 0.864527 2.4828 0.494715 -84.22 0.494715 -84.22 0.865195 8.4912
9.80000000 0.865452 2.1768 0.493079 -84.49 0.493079 -84.49 0.866133 8.2579
9.85000000 0.866363 1.8707 0.491458 -84.76 0.491458 -84.76 0.867058 8.0254
9.90000000 0.867261 1.5644 0.489853 -85.03 0.489853 -85.03 0.867971 7.7936
9.95000000 0.868147 1.2580 0.488262 -85.30 0.488262 -85.30 0.868872 7.5627
10.0000000 0.869020 0.9514 0.486686 -85.57 0.486686 -85.57 0.869760 7.3325
